(1756900800.002025) can0 100#1F0703E85083986F
(1756900800.005013) can0 200#549B54A7554E555C
(1756900800.009005) can0 101#0200000000007000
(1756900800.011024) can0 300#17FFFCFEB500AA00
(1756900800.015019) can0 201#AD5409002E01F8FF
(1756900800.022009) can0 100#1F0F03E85083986F
(1756900800.023017) can0 500#070E00170000007B
(1756900800.025008) can0 200#54B154AE55685572
(1756900800.027006) can0 400#024D032F032F0359
(1756900800.029003) can0 101#0000000002007000
(1756900800.031012) can0 300#4CFF38FFCC00E200
(1756900800.035023) can0 201#B65402003101FFFF
(1756900800.042015) can0 100#1F1703E85083986E
(1756900800.045021) can0 200#54DD54D6557F5582
(1756900800.049015) can0 101#0000010004007000
(1756900800.051014) can0 300#52FF4CFF07010701
(1756900800.055015) can0 201#DC54FCFF32010400
(1756900800.062023) can0 100#1F1F03E850839870
(1756900800.065001) can0 200#54E954CC558F5598
(1756900800.069009) can0 101#0000000000007000
(1756900800.071017) can0 300#D3FEBFFE93007C00
(1756900800.075009) can0 201#E554FFFF2801F9FF
(1756900800.077020) can0 400#035F03420341035A
(1756900800.082011) can0 100#1F2603E85083986F
(1756900800.085013) can0 200#54FA54EF55BC55A4
(1756900800.089021) can0 101#0000000003007000
(1756900800.091019) can0 300#BCFEB9FE5C005A00
(1756900800.095019) can0 201#F854000032010400
(1756900800.102015) can0 100#1F2E03E850839870
(1756900800.105023) can0 200#551354F655BA55B4
(1756900800.109000) can0 101#0000000003007000
(1756900800.111008) can0 300#48FF6BFF0101FA00
(1756900800.115007) can0 201#1455FBFF28010000
(1756900800.122010) can0 100#1F3603E85083986E
(1756900800.123013) can0 500#074B007B0000007B
(1756900800.125009) can0 200#5520553255D055CC
(1756900800.127020) can0 400#0035031903190359
(1756900800.129010) can0 101#01000200FCFF7000
(1756900800.131024) can0 300#60FF50FFE400EC00
(1756900800.135021) can0 201#3555FEFF2201F8FF
(1756900800.142012) can0 100#1F3D03E85083986F
(1756900800.145001) can0 200#553D553655FA55E8
(1756900800.149011) can0 101#0400000003007000
(1756900800.151021) can0 300#E3FE09FFA3008400
(1756900800.155019) can0 201#4655FFFF2001FEFF
(1756900800.162006) can0 100#1F4503E85083986F
(1756900800.165019) can0 200#5556553655FC5603
(1756900800.169005) can0 101#00000300FCFF7000
(1756900800.171006) can0 300#FEFEFDFE7E007E00
(1756900800.175008) can0 201#5B55FDFF21010200
(1756900800.177022) can0 400#0148032B032A0359
(1756900800.182016) can0 100#1F4D03E850839870
(1756900800.185024) can0 200#556755645615561F
(1756900800.189022) can0 101#00000000FCFF7000
(1756900800.191010) can0 300#10FFFEFE74007D00
(1756900800.195020) can0 201#695500001C01F1FF
(1756900800.202009) can0 100#1F5403E85083986F
(1756900800.205019) can0 200#557A557B562C562D
(1756900800.209010) can0 101#0000000000007000
(1756900800.211021) can0 300#53FF3BFFE100D300
(1756900800.215022) can0 201#8455FDFF2301FAFF
(1756900800.222005) can0 100#1F5C03E85083986E
(1756900800.223004) can0 500#078700DF0000007B
(1756900800.225020) can0 200#55935583562D563F
(1756900800.227013) can0 400#024D032F032E0359
(1756900800.229010) can0 101#01000300FEFF7000
(1756900800.231019) can0 300#4EFF59FF0301FA00
(1756900800.235006) can0 201#9955040022010E00
(1756900800.242023) can0 100#1F6303E85083986E
(1756900800.245003) can0 200#559F559B56515648
(1756900800.249010) can0 101#0000000002007000
(1756900800.251008) can0 300#B2FECAFE64007B00
(1756900800.255005) can0 201#AB5505002401FDFF
(1756900800.262022) can0 100#1F6B03E850839870
(1756900800.265003) can0 200#55AA55B156565664
(1756900800.269007) can0 101#0200000003007000
(1756900800.271024) can0 300#F1FEBFFE58005200
(1756900800.275003) can0 201#CA55000022010300
(1756900800.277008) can0 400#035F03400342035A
(1756900800.282000) can0 100#1F7203E850839870
(1756900800.285010) can0 200#55C555BA567F5678
(1756900800.289006) can0 101#01000000FFFF7000
(1756900800.291022) can0 300#40FF7FFFE900E100
(1756900800.295025) can0 201#CD55F8FF1C010700
(1756900800.302008) can0 100#1F7A03E850839870
(1756900800.305013) can0 200#55D055CC5685567D
(1756900800.309014) can0 101#0000000004007000
(1756900800.311002) can0 300#4CFF36FFD300C200
(1756900800.315015) can0 201#E555000014010500
(1756900800.322015) can0 100#1F8103E850839871
(1756900800.323020) can0 500#07C400430100007B
(1756900800.325024) can0 200#55EE55ED56A156A2
(1756900800.327004) can0 400#0035031703170359
(1756900800.329008) can0 101#00000100FAFF7000
(1756900800.331005) can0 300#0AFF00FF91009F00
(1756900800.335003) can0 201#F65500002101F7FF
(1756900800.342000) can0 100#1F8903E85083986F
(1756900800.345019) can0 200#55E7560456A956A6
(1756900800.349006) can0 101#0000020004007000
(1756900800.351017) can0 300#F0FE12FF8F007900
(1756900800.355016) can0 201#055603001A011A00
(1756900800.362005) can0 100#1F9003E850839872
(1756900800.365025) can0 200#562A561356BD56CC
(1756900800.369008) can0 101#01000100FEFF7000
(1756900800.371013) can0 300#F2FED4FE73007B00
(1756900800.375002) can0 201#2656020017010D00
(1756900800.377002) can0 400#0147032903290359
(1756900800.382024) can0 100#1F9703E850839870
(1756900800.385008) can0 200#5630562B56F256D8
(1756900800.389000) can0 101#0100000001007000
(1756900800.391022) can0 300#61FF64FFC500E000
(1756900800.395016) can0 201#3556FFFF1A01FDFF
(1756900800.402015) can0 100#1F9F03E850839872
(1756900800.405012) can0 200#563F564D56DD56F3
(1756900800.409005) can0 101#01000000FFFF7000
(1756900800.411000) can0 300#7BFF7DFFF700F900
(1756900800.415019) can0 201#485603001601FCFF
(1756900800.422010) can0 100#1FA603E850839870
(1756900800.423024) can0 500#070201A70100007B
(1756900800.425015) can0 200#56685654570D570F
(1756900800.427013) can0 400#024D032D032F0359
(1756900800.429019) can0 101#03000000FDFF7000
(1756900800.431002) can0 300#E4FED4FE38006D00
(1756900800.435013) can0 201#575604001E01F9FF
(1756900800.442015) can0 100#1FAD03E850839870
(1756900800.445022) can0 200#5674566157145717
(1756900800.449002) can0 101#00000000FCFF7000
(1756900800.451014) can0 300#E5FEF7FE6C006400
(1756900800.455007) can0 201#7256020014010500
(1756900800.462022) can0 100#1FB403E850839870
(1756900800.465003) can0 200#568A567F571C5716
(1756900800.469007) can0 101#02000000FDFF7000
(1756900800.471024) can0 300#3EFF54FFD500D900
(1756900800.475019) can0 201#8656000014010600
(1756900800.477002) can0 400#035E0340033E035A
(1756900800.482022) can0 100#1FBC03E850839872
(1756900800.485004) can0 200#5699568D57415733
(1756900800.489001) can0 101#00000100FFFF7000
(1756900800.491019) can0 300#64FF64FFDE00C500
(1756900800.495004) can0 201#9B5601001C010000
(1756900800.502022) can0 100#1FC303E850839870
(1756900800.505020) can0 200#56AF56A05744575C
(1756900800.509018) can0 101#0400000007007000
(1756900800.511024) can0 300#38FF40FFA900BB00
(1756900800.515001) can0 201#AC5605001901FCFF
(1756900800.522002) can0 100#1FCA03E850839870
(1756900800.523000) can0 500#073F010B0200007B
(1756900800.525006) can0 200#56B456B957585762
(1756900800.527001) can0 400#0035031703160359
(1756900800.529008) can0 101#0000030005007000
(1756900800.531008) can0 300#05FF00FF9D008400
(1756900800.535003) can0 201#C756010010010800
(1756900800.542015) can0 100#1FD103E850839872
(1756900800.545013) can0 200#56C156CC577D5771
(1756900800.549016) can0 101#00000100FFFF7000
(1756900800.551009) can0 300#F2FEF1FE66006000
(1756900800.555012) can0 201#CF56FAFF13010400
(1756900800.562023) can0 100#1FD803E850839870
(1756900800.565018) can0 200#56D856D757835780
(1756900800.569023) can0 101#02000000FFFF7000
(1756900800.571001) can0 300#70FF74FFF300EE00
(1756900800.575005) can0 201#E65601000F01ECFF
(1756900800.577002) can0 400#0146032703280359
(1756900800.582006) can0 100#1FDF03E850839871
(1756900800.585022) can0 200#56EC56F457995789
(1756900800.589010) can0 101#00000000FFFF7000
(1756900800.591002) can0 300#72FF88FF0501FF00
(1756900800.595005) can0 201#F856FEFF1101FFFF
(1756900800.602009) can0 100#1FE603E850839871
(1756900800.605010) can0 200#5709571257A557A9
(1756900800.609015) can0 101#0400020001007000
(1756900800.611019) can0 300#F5FEDEFE5C006400
(1756900800.615001) can0 201#0E57FEFF11010B00
(1756900800.622017) can0 100#1FED03E850839870
(1756900800.623008) can0 500#077D016F0200007B
(1756900800.625000) can0 200#572B571B57CE57AF
(1756900800.627018) can0 400#024C032E032E0359
(1756900800.629018) can0 101#0100000001007000
(1756900800.631012) can0 300#E4FEF5FE7E006900
(1756900800.635022) can0 201#2057FEFF1301FCFF
(1756900800.642015) can0 100#1FF403E850839872
(1756900800.645001) can0 200#572D572D57DD57D4
(1756900800.649002) can0 101#01000000FFFF7000
(1756900800.651014) can0 300#34FF2FFFD000CB00
(1756900800.655020) can0 201#3057010012010200
(1756900800.662007) can0 100#1FFB03E850839872
(1756900800.665000) can0 200#573F574457E357DA
(1756900800.669012) can0 101#0000000001007000
(1756900800.671008) can0 300#4AFF55FFAD00B600
(1756900800.675002) can0 201#455702000D01FBFF
(1756900800.677013) can0 400#035D033E033E035A
(1756900800.682010) can0 100#200203E850839872
(1756900800.685008) can0 200#574B574957F157EE
(1756900800.689018) can0 101#01000000FDFF7000
(1756900800.691019) can0 300#58FF5EFFD300C000
(1756900800.695020) can0 201#575701000601F9FF
(1756900800.702011) can0 100#200903E850839871
(1756900800.705019) can0 200#576C5773580A5806
(1756900800.709016) can0 101#0100020000007000
(1756900800.711016) can0 300#06FFE6FE76006600
(1756900800.715012) can0 201#7357FDFF0C01F3FF
(1756900800.722003) can0 100#201003E850839873
(1756900800.723013) can0 500#07BB01D30200007B
(1756900800.725006) can0 200#5772577F58245813
(1756900800.727014) can0 400#0034031603170359
(1756900800.729021) can0 101#00000400FEFF7000
(1756900800.731009) can0 300#E9FED4FE58005900
(1756900800.735010) can0 201#755700000F010000
(1756900800.742012) can0 100#201703E850839872
(1756900800.745001) can0 200#578B5795582F5823
(1756900800.749021) can0 101#0300020001007000
(1756900800.751006) can0 300#67FF84FFF500ED00
(1756900800.755019) can0 201#9357000009010C00
(1756900800.762003) can0 100#201E03E850839873
(1756900800.765019) can0 200#57AC57AF582F583B
(1756900800.769001) can0 101#00000000FFFF7000
(1756900800.771023) can0 300#61FF75FFFC00EC00
(1756900800.775023) can0 201#A157FBFF06010100
(1756900800.777010) can0 400#0144032603270359
(1756900800.782014) can0 100#202503E850839872
(1756900800.785009) can0 200#57B157B358635868
(1756900800.789024) can0 101#0000010001007000
(1756900800.791023) can0 300#F0FEFCFE54006900
(1756900800.795004) can0 201#B357040006010D00
(1756900800.802024) can0 100#202C03E850839872
(1756900800.805003) can0 200#57B957B65867586E
(1756900800.809020) can0 101#00000000FDFF7000
(1756900800.811002) can0 300#EBFEFFFE87007300
(1756900800.815013) can0 201#C857FCFF0801F7FF
(1756900800.822024) can0 100#203303E850839870
(1756900800.823016) can0 500#07F901370300007B
(1756900800.825018) can0 200#57E657EA58725872
(1756900800.827008) can0 400#024B032E032E0359
(1756900800.829024) can0 101#01000000FEFF7000
(1756900800.831002) can0 300#36FF2EFFAB00A000
(1756900800.835004) can0 201#DE5701000501FCFF
(1756900800.842010) can0 100#203903E850839872
(1756900800.845022) can0 200#57EB57EC58875880
(1756900800.849022) can0 101#0000010002007000
(1756900800.851010) can0 300#59FF56FFC300D600
(1756900800.855011) can0 201#F257020000011200
(1756900800.862020) can0 100#204003E850839872
(1756900800.865019) can0 200#580B57FF589158A2
(1756900800.869002) can0 101#0000000000007000
(1756900800.871022) can0 300#5EFF6BFFCA00E100
(1756900800.875016) can0 201#0758060001010700
(1756900800.877014) can0 400#035B033D033D035A
(1756900800.882009) can0 100#204703E850839873
(1756900800.885007) can0 200#581257F858A058B6
(1756900800.889004) can0 101#04000000FBFF7000
(1756900800.891004) can0 300#EFFEFAFE54005D00
(1756900800.895018) can0 201#1958FFFF0701F8FF
(1756900800.902014) can0 100#204E03E850839874
(1756900800.905006) can0 200#5815581B58CC58C6
(1756900800.909024) can0 101#0400000003007000
(1756900800.911004) can0 300#F2FEDEFE58004000
(1756900800.915000) can0 201#29580500FF00FAFF
(1756900800.922004) can0 100#205403E850839872
(1756900800.923006) can0 500#0738029B0300007B
(1756900800.925009) can0 200#582D583858D358E6
(1756900800.927008) can0 400#0033031503150359
(1756900800.929024) can0 101#02000000FCFF7000
(1756900800.931023) can0 300#88FF80FFE400EC00
(1756900800.935010) can0 201#3758FAFFFD000300
(1756900800.942007) can0 100#205B03E850839873
(1756900800.945010) can0 200#5824583658F458E2
(1756900800.949018) can0 101#0000020002007000
(1756900800.951014) can0 300#73FF89FFE300E100
(1756900800.955010) can0 201#4A580100FF000600
(1756900800.962012) can0 100#206203E850839872
(1756900800.965003) can0 200#584E586C58F958FD
(1756900800.969024) can0 101#0000000001007000
(1756900800.971000) can0 300#E1FE0CFF6B005C00
(1756900800.975022) can0 201#60580400FC00FCFF
(1756900800.977013) can0 400#0143032603240359
(1756900800.982013) can0 100#206803E850839874
(1756900800.985001) can0 200#58705855590458FF
(1756900800.989011) can0 101#0100000004007000
(1756900800.991004) can0 300#11FF10FF6B007F00
(1756900800.995006) can0 201#71580400FE000000
(1756900801.002011) can0 100#206F03E850839872
(1756900801.005013) can0 200#58845889591B5926
(1756900801.009012) can0 101#0000000000007000
(1756900801.011018) can0 300#2CFF0CFF96008B00
(1756900801.015014) can0 201#8158FEFFFF000700
(1756900801.022018) can0 100#207503E850839872
(1756900801.023015) can0 500#077702FF0300007B
(1756900801.025009) can0 200#5893587959245927
(1756900801.027012) can0 400#024A032E032D0359
(1756900801.029016) can0 101#0000020002007000
(1756900801.031020) can0 300#66FF4BFFC300B800
(1756900801.035002) can0 201#92580200FF00FBFF
(1756900801.042023) can0 100#207C03E850839873
(1756900801.045001) can0 200#588C5894592F5958
(1756900801.049007) can0 101#00000100FEFF7000
(1756900801.051006) can0 300#81FF58FFEF00E200
(1756900801.055022) can0 201#AB580100FE00F3FF
(1756900801.062013) can0 100#208203E850839873
(1756900801.065015) can0 200#58AE58A9594D5950
(1756900801.069016) can0 101#00000000FAFF7000
(1756900801.071018) can0 300#E1FEF4FE62005A00
(1756900801.075011) can0 201#B6580200FF000700
(1756900801.077011) can0 400#035B033C033C035A
(1756900801.082011) can0 100#208903E850839874
(1756900801.085014) can0 200#58B358C9595B595B
(1756900801.089011) can0 101#0000000000007000
(1756900801.091012) can0 300#F2FED2FE4D003600
(1756900801.095022) can0 201#BD58FFFFFF000200
(1756900801.102015) can0 100#208F03E850839871
(1756900801.105008) can0 200#58C658F45982596B
(1756900801.109016) can0 101#0000030000007000
(1756900801.111023) can0 300#95FF6EFFDC00E300
(1756900801.115003) can0 201#DA5801000201FEFF
(1756900801.122019) can0 100#209603E850839873
(1756900801.123010) can0 500#07B602630400007B
(1756900801.125021) can0 200#58DC58DF597C595E
(1756900801.127002) can0 400#0032031503150359
(1756900801.129006) can0 101#0100020002007000
(1756900801.131003) can0 300#84FF93FFE100D100
(1756900801.135005) can0 201#F1580900FA000400
(1756900801.142020) can0 100#209C03E850839874
(1756900801.145013) can0 200#58EB58F9598A59AD
(1756900801.149018) can0 101#0000040000007000
(1756900801.151024) can0 300#23FF11FF7B007700
(1756900801.155017) can0 201#F958F7FFFB000800
(1756900801.162011) can0 100#20A303E850839873
(1756900801.165015) can0 200#591158FD5987599C
(1756900801.169007) can0 101#0000020001007000
(1756900801.171008) can0 300#23FF13FF51007900
(1756900801.175019) can0 201#12590100FC00F1FF
(1756900801.177006) can0 400#0143032403250359
(1756900801.182014) can0 100#20A903E850839874
(1756900801.185017) can0 200#5919591E59A359AA
(1756900801.189010) can0 101#0200000000007000
(1756900801.191004) can0 300#13FF1CFF73007C00
(1756900801.195008) can0 201#1B590100FF000000
(1756900801.202003) can0 100#20B003E850839874
(1756900801.205010) can0 200#592E592759C359D2
(1756900801.209001) can0 101#01000000FFFF7000
(1756900801.211009) can0 300#6EFF66FFC700B800
(1756900801.215010) can0 201#2C59FDFFF700FBFF
(1756900801.222024) can0 100#20B603E850839875
(1756900801.223011) can0 500#07F502C70400007B
(1756900801.225002) can0 200#593B593459C559DF
(1756900801.227015) can0 400#0249032C032C0359
(1756900801.229022) can0 101#0100000002007000
(1756900801.231011) can0 300#A7FF77FFE600EE00
(1756900801.235003) can0 201#3E59FCFFF3001400
(1756900801.242008) can0 100#20BC03E850839873
(1756900801.245023) can0 200#594B594359D159FB
(1756900801.249011) can0 101#00000000FEFF7000
(1756900801.251019) can0 300#E9FE09FF4F006700
(1756900801.255001) can0 201#5259FDFFF1000800
(1756900801.262010) can0 100#20C303E850839874
(1756900801.265015) can0 200#594D596359EF59EA
(1756900801.269013) can0 101#0000000003007000
(1756900801.271001) can0 300#05FFECFE3F004000
(1756900801.275000) can0 201#62590100F200F3FF
(1756900801.277010) can0 400#0359033B033B035A
(1756900801.282013) can0 100#20C903E850839874
(1756900801.285012) can0 200#597759685A0A59ED
(1756900801.289022) can0 101#02000000FDFF7000
(1756900801.291013) can0 300#7AFF6BFFDB00CB00
(1756900801.295006) can0 201#76590100EB00F2FF
(1756900801.302013) can0 100#20CF03E850839873
(1756900801.305021) can0 200#597F596B5A215A1E
(1756900801.309006) can0 101#00000200FDFF7000
(1756900801.311008) can0 300#76FF6FFFB700C700
(1756900801.315008) can0 201#89590000F7000900
(1756900801.322011) can0 100#20D503E850839874
(1756900801.323001) can0 500#0735032B0500007B
(1756900801.325023) can0 200#5998597D5A1E5A28
(1756900801.327001) can0 400#0032031403140359
(1756900801.329017) can0 101#00000300FFFF7000
(1756900801.331016) can0 300#45FF2FFF76008800
(1756900801.335008) can0 201#90590400F5000400
(1756900801.342006) can0 100#20DC03E850839876
(1756900801.345013) can0 200#5996599E5A535A27
(1756900801.349009) can0 101#01000300FFFF7000
(1756900801.351014) can0 300#0FFF12FF68005900
(1756900801.355022) can0 201#A7590000F4000A00
(1756900801.362012) can0 100#20E203E850839872
(1756900801.365013) can0 200#59BE59B95A425A52
(1756900801.369019) can0 101#0200020003007000
(1756900801.371005) can0 300#1FFF14FF53007200
(1756900801.375023) can0 201#B2590500E700FAFF
(1756900801.377022) can0 400#0142032303230359
(1756900801.382007) can0 100#20E803E850839874
(1756900801.385016) can0 200#59BB59B95A5B5A67
(1756900801.389010) can0 101#00000300FDFF7000
(1756900801.391018) can0 300#7CFF7BFFCC00BA00
(1756900801.395014) can0 201#CC590200E9000800
(1756900801.402025) can0 100#20EE03E850839873
(1756900801.405010) can0 200#59DB59C65A685A72
(1756900801.409001) can0 101#02000000FFFF7000
(1756900801.411005) can0 300#ADFF9BFFCA00DE00
(1756900801.415006) can0 201#D1590200F000F3FF
(1756900801.422017) can0 100#20F403E850839873
(1756900801.423023) can0 500#0775038F0500007B
(1756900801.425001) can0 200#59D959D45A765A70
(1756900801.427014) can0 400#0249032B032B0359
(1756900801.429014) can0 101#0100020002007000
(1756900801.431001) can0 300#EEFEEFFE35002A00
(1756900801.435010) can0 201#E4590500EA00F9FF
(1756900801.442016) can0 100#20FA03E850839874
(1756900801.445013) can0 200#59EF59EE5A905A8A
(1756900801.449003) can0 101#02000200FCFF7000
(1756900801.451015) can0 300#E9FE12FF5F006400
(1756900801.455013) can0 201#025AFBFFE6000700
(1756900801.462012) can0 100#210003E850839876
(1756900801.465007) can0 200#5A125A045A8B5A9B
(1756900801.469021) can0 101#0000000002007000
(1756900801.471023) can0 300#64FF7AFFAA00BD00
(1756900801.475004) can0 201#075A0400EA00FCFF
(1756900801.477001) can0 400#0358033B033C035A
(1756900801.482016) can0 100#210703E850839875
(1756900801.485005) can0 200#5A1D5A155A955AA1
(1756900801.489008) can0 101#00000200FEFF7000
(1756900801.491013) can0 300#69FF79FFB200DA00
(1756900801.495004) can0 201#195AF6FFE4000E00
(1756900801.502010) can0 100#210D03E850839874
(1756900801.505022) can0 200#5A235A115ABA5AB9
(1756900801.509015) can0 101#0000000008007000
(1756900801.511014) can0 300#62FF70FF9200AE00
(1756900801.515008) can0 201#2B5AFFFFE700F7FF
(1756900801.522004) can0 100#211303E850839875
(1756900801.523017) can0 500#07B503F30500007B
(1756900801.525024) can0 200#5A355A385ADE5AD1
(1756900801.527005) can0 400#0033031403140359
(1756900801.529023) can0 101#02000100FFFF7000
(1756900801.531020) can0 300#17FF2DFF4B005D00
(1756900801.535013) can0 201#3F5AF9FFE6000100
(1756900801.542022) can0 100#211903E850839875
(1756900801.545020) can0 200#5A665A4C5ADF5AE2
(1756900801.549001) can0 101#00000000FEFF7000
(1756900801.551018) can0 300#03FFFAFE46003E00
(1756900801.555012) can0 201#505A0200E3000300
(1756900801.562023) can0 100#211F03E850839875
(1756900801.565008) can0 200#5A435A445AE55AFD
(1756900801.569020) can0 101#0100000002007000
(1756900801.571006) can0 300#93FF89FFC000E700
(1756900801.575007) can0 201#5E5AFCFFE6000000
(1756900801.577006) can0 400#0140032203220359
(1756900801.582019) can0 100#212503E850839875
(1756900801.585013) can0 200#5A5F5A595AF65AFB
(1756900801.589002) can0 101#00000000FFFF7000
(1756900801.591004) can0 300#8CFFA1FFF900DC00
(1756900801.595016) can0 201#6E5A0000E700FFFF
(1756900801.602014) can0 100#212B03E850839874
(1756900801.605019) can0 200#5A785A6F5B125B0D
(1756900801.609015) can0 101#0000000000007000
(1756900801.611024) can0 300#EBFEEBFE31002D00
(1756900801.615010) can0 201#785AFBFFDA00EDFF
(1756900801.622020) can0 100#213103E850839875
(1756900801.623005) can0 500#07F503570600007B
(1756900801.625010) can0 200#5A825A8D5B195B18
(1756900801.627010) can0 400#0248032B032B0359
(1756900801.629002) can0 101#00000200FEFF7000
(1756900801.631011) can0 300#31FF19FF57004900
(1756900801.635005) can0 201#8C5A0500E9000100
(1756900801.642005) can0 100#213603E850839876
(1756900801.645019) can0 200#5A8A5A975B2F5B27
(1756900801.649009) can0 101#0000010007007000
(1756900801.651002) can0 300#66FF70FFA6009700
(1756900801.655003) can0 201#A35A0200E8000200
(1756900801.662007) can0 100#213C03E850839874
(1756900801.665018) can0 200#5A9C5AA85B3D5B38
(1756900801.669021) can0 101#0000000000007000
(1756900801.671020) can0 300#70FF65FFBB00A900
(1756900801.675020) can0 201#B35AFCFFE100FCFF
(1756900801.677018) can0 400#03570339033A035A
(1756900801.682009) can0 100#214203E850839876
(1756900801.685006) can0 200#5AC05AB75B4C5B57
(1756900801.689013) can0 101#0000020002007000
(1756900801.691003) can0 300#83FF80FFA000B800
(1756900801.695013) can0 201#BD5A0800E000FBFF
(1756900801.702021) can0 100#214803E850839875
(1756900801.705021) can0 200#5AC65ABE5B535B51
(1756900801.709010) can0 101#0000000003007000
(1756900801.711010) can0 300#0EFF12FF5A005200
(1756900801.715021) can0 201#CB5AFEFFE1000400
(1756900801.722015) can0 100#214E03E850839877
(1756900801.723004) can0 500#073504BB0600007B
(1756900801.725008) can0 200#5ACD5ADC5B5F5B5D
(1756900801.727015) can0 400#0032031303130359
(1756900801.729004) can0 101#0100000002007000
(1756900801.731021) can0 300#DAFE02FF36002B00
(1756900801.735014) can0 201#E15A0900E3000300
(1756900801.742006) can0 100#215403E850839875
(1756900801.745000) can0 200#5AEF5AD55B935B87
(1756900801.749015) can0 101#00000400FFFF7000
(1756900801.751018) can0 300#8EFF8DFFBC00DB00
(1756900801.755009) can0 201#ED5A0300E100F6FF
(1756900801.762006) can0 100#215A03E850839874
(1756900801.765004) can0 200#5AFD5AF75BA05B9D
(1756900801.769024) can0 101#02000000FCFF7000
(1756900801.771024) can0 300#99FF8FFFEB00DB00
(1756900801.775017) can0 201#FC5AFFFFE0000100
(1756900801.777024) can0 400#013F032103210359
(1756900801.782020) can0 100#215F03E850839876
(1756900801.785016) can0 200#5B015AF25B8E5B99
(1756900801.789023) can0 101#0000000000007000
(1756900801.791013) can0 300#00FF0EFF4F004B00
(1756900801.795003) can0 201#085B0100DC00FDFF
(1756900801.802014) can0 100#216503E850839876
(1756900801.805005) can0 200#5B225B245BBE5B87
(1756900801.809021) can0 101#0100010001007000
(1756900801.811012) can0 300#23FF13FF67005100
(1756900801.815014) can0 201#225B0000DB00EFFF
(1756900801.822014) can0 100#216B03E850839875
(1756900801.823007) can0 500#0776041F0700007B
(1756900801.825002) can0 200#5B485B2B5BAC5BB5
(1756900801.827020) can0 400#0247032B032A0359
(1756900801.829020) can0 101#00000200FDFF7000
(1756900801.831000) can0 300#72FF76FF84008800
(1756900801.835023) can0 201#285BFFFFD500FBFF
(1756900801.842010) can0 100#217103E850839874
(1756900801.845016) can0 200#5B455B425BCC5BC5
(1756900801.849021) can0 101#0000000002007000
(1756900801.851004) can0 300#5CFF5FFFA900B200
(1756900801.855016) can0 201#335B0000D700FFFF
(1756900801.862013) can0 100#217603E850839875
(1756900801.865021) can0 200#5B475B5B5BD55BD3
(1756900801.869010) can0 101#0100000000007000
(1756900801.871014) can0 300#95FF90FFB400BF00
(1756900801.875013) can0 201#515BFEFFDC000000
(1756900801.877000) can0 400#035603380338035A
(1756900801.882015) can0 100#217C03E850839876
(1756900801.885012) can0 200#5B565B655BEE5BE2
(1756900801.889020) can0 101#0000000000007000
(1756900801.891018) can0 300#2EFF1DFF42006300
(1756900801.895006) can0 201#5C5BFFFFD900FEFF
(1756900801.902022) can0 100#218203E850839876
(1756900801.905015) can0 200#5B645B6F5BDD5BF0
(1756900801.909016) can0 101#0000000002007000
(1756900801.911023) can0 300#0AFFEDFE27003300
(1756900801.915013) can0 201#6E5B0100D7001100
(1756900801.922009) can0 100#218703E850839873
(1756900801.923006) can0 500#07B704830700007B
(1756900801.925013) can0 200#5B705B6D5C015BFF
(1756900801.927008) can0 400#0031031403120359
(1756900801.929017) can0 101#0200000007007000
(1756900801.931021) can0 300#A4FF9AFFBD00AE00
(1756900801.935000) can0 201#7C5B0600DA00F7FF
(1756900801.942001) can0 100#218D03E850839875
(1756900801.945009) can0 200#5B845B7D5C1B5C0E
(1756900801.949008) can0 101#0200020005007000
(1756900801.951012) can0 300#B5FF94FFD000C500
(1756900801.955020) can0 201#8A5B0100DD00FDFF
(1756900801.962014) can0 100#219303E850839875
(1756900801.965016) can0 200#5B795B955C1E5C34
(1756900801.969015) can0 101#0000010004007000
(1756900801.971000) can0 300#0BFF18FF55005500
(1756900801.975022) can0 201#945B0000D6000600
(1756900801.977003) can0 400#013E032003200359
(1756900801.982017) can0 100#1C4A03D760839865
(1756900801.985024) can0 200#5B555B655BA45BAD
(1756900801.989003) can0 101#31001D00FFFF7000
(1756900801.991008) can0 300#B900D40012FF18FF
(1756900801.995006) can0 201#935B0000D3FE0300
(1756900802.002008) can0 100#1C4402BF60839866
(1756900802.005009) can0 200#5B435B3E5B865B7A
(1756900802.009001) can0 101#7D004F00FFFF7000
(1756900802.011008) can0 300#E900D90046FF4AFF
(1756900802.015002) can0 201#7B5BFFFFD1FEFCFF
(1756900802.022008) can0 100#1C3D01F660839868
(1756900802.023016) can0 500#07F804E70700007B
(1756900802.025024) can0 200#5B165B305B745B68
(1756900802.027004) can0 400#0248032A03290359
(1756900802.029019) can0 101#8F005A0000007000
(1756900802.031016) can0 300#5EFF71FF9F00B800
(1756900802.035004) can0 201#795B0700D900F9FF
(1756900802.042010) can0 100#1C3F025360839866
(1756900802.045013) can0 200#5B765B7E5C195C0C
(1756900802.049012) can0 101#48002E0000007000
(1756900802.051016) can0 300#81FFADFFDF00D800
(1756900802.055013) can0 201#8A5B0000D9000900
(1756900802.062010) can0 100#1C4402C660839867
(1756900802.065008) can0 200#5B7D5B8A5C195C1E
(1756900802.069018) can0 101#26001A0001007000
(1756900802.071024) can0 300#03FFFFFE22003C00
(1756900802.075007) can0 201#985BFAFFDB00FEFF
(1756900802.077007) can0 400#035503360336035A
(1756900802.082013) can0 100#1C48031960839867
(1756900802.085011) can0 200#5B905BA95C2E5C2F
(1756900802.089010) can0 101#1100050000007000
(1756900802.091004) can0 300#F5FEE7FE42003600
(1756900802.095000) can0 201#A35BFBFFDC00F2FF
(1756900802.102019) can0 100#1C4D035460839868
(1756900802.105012) can0 200#5BB55B9F5C385C38
(1756900802.109004) can0 101#0C000700FCFF7000
(1756900802.111007) can0 300#A6FFACFFC100C100
(1756900802.115012) can0 201#B55B0500DA000700
(1756900802.122017) can0 100#1C52037E60839866
(1756900802.123010) can0 500#0739054B0800007B
(1756900802.125016) can0 200#5BBE5BAE5C475C49
(1756900802.127017) can0 400#0030031303120359
(1756900802.129020) can0 101#0300000005007000
(1756900802.131019) can0 300#8CFF93FFBF00BF00
(1756900802.135005) can0 201#BE5B0400D500FBFF
(1756900802.142017) can0 100#1C57039C60839866
(1756900802.145004) can0 200#5BC55BC65C535C53
(1756900802.149020) can0 101#04000000FFFF7000
(1756900802.151008) can0 300#41FF28FF4B004600
(1756900802.155018) can0 201#CF5B0700D300F0FF
(1756900802.162000) can0 100#1C5B03B260839867
(1756900802.165010) can0 200#5BD75BC85C795C52
(1756900802.169012) can0 101#0200010001007000
(1756900802.171020) can0 300#3DFF34FF4F005C00
(1756900802.175024) can0 201#DE5B0300D800F9FF
(1756900802.177020) can0 400#013E032003200359
(1756900802.182000) can0 100#1C6003C160839867
(1756900802.185017) can0 200#5BD75BE75C755C73
(1756900802.189015) can0 101#0300000002007000
(1756900802.191020) can0 300#2CFF34FF75006500
(1756900802.195006) can0 201#EE5BFAFFD100FEFF
(1756900802.202021) can0 100#1C6403CC60839868
(1756900802.205008) can0 200#5BFE5C015C915C7F
(1756900802.209013) can0 101#0300020001007000
(1756900802.211015) can0 300#81FFA5FFBC00A400
(1756900802.215018) can0 201#035CF8FFD5000600
(1756900802.222018) can0 100#1C6903D460839868
(1756900802.223000) can0 500#077B05AF0800007B
(1756900802.225019) can0 200#5C1B5C075C835C8A
(1756900802.227022) can0 400#0246032903290359
(1756900802.229008) can0 101#0000010001007000
(1756900802.231002) can0 300#A7FFA4FFED00C300
(1756900802.235016) can0 201#0C5C0100CC000100
(1756900802.242016) can0 100#1C6E03DA60839868
(1756900802.245012) can0 200#5C0C5C1B5CA85C91
(1756900802.249007) can0 101#0000020002007000
(1756900802.251001) can0 300#1FFF17FF33003400
(1756900802.255009) can0 201#155CFFFFCB000700
(1756900802.262008) can0 100#1C7203DE60839865
(1756900802.265018) can0 200#5C295C345CB15CB1
(1756900802.269002) can0 101#0000010000007000
(1756900802.271004) can0 300#FCFEFEFE28002600
(1756900802.275013) can0 201#2C5CFCFFCF00FFFF
(1756900802.277011) can0 400#035403360336035A
(1756900802.282024) can0 100#1C7703E160839867
(1756900802.285000) can0 200#5C335C3A5CBA5CC2
(1756900802.289022) can0 101#00000000FDFF7000
(1756900802.291022) can0 300#95FF9CFFC900C600
(1756900802.295002) can0 201#395C0200D6000C00
(1756900802.302014) can0 100#1C7B03E360839867
(1756900802.305008) can0 200#5C415C3A5CCF5CC3
(1756900802.309004) can0 101#0200020005007000
(1756900802.311007) can0 300#7CFF77FFB000C000
(1756900802.315020) can0 201#475CFCFFCE000300
(1756900802.322024) can0 100#1C8003E460839866
(1756900802.323010) can0 500#07BC05130900007B
(1756900802.325007) can0 200#5C4F5C405CC35CD5
(1756900802.327016) can0 400#002F031103120359
(1756900802.329003) can0 101#0000010001007000
(1756900802.331015) can0 300#54FF49FF7A006700
(1756900802.335013) can0 201#585C0500C900FDFF
(1756900802.342001) can0 100#1C8403E56083986A
(1756900802.345008) can0 200#5C615C4C5CF75CF6
(1756900802.349009) can0 101#00000000FCFF7000
(1756900802.351022) can0 300#3FFF46FF5C005500
(1756900802.355023) can0 201#6E5CFFFFD2000900
(1756900802.362007) can0 100#1C8903E660839866
(1756900802.365010) can0 200#5C635C625CF65CF6
(1756900802.369023) can0 101#0000000001007000
(1756900802.371000) can0 300#24FF19FF36004500
(1756900802.375013) can0 201#755CFEFFCC00F0FF
(1756900802.377018) can0 400#013D031F031F0359
(1756900802.382010) can0 100#1C8D03E760849968
(1756900802.385005) can0 200#5C705C7E5CFB5CF9
(1756900802.389010) can0 101#0000000002007000
(1756900802.391012) can0 300#B1FFA5FFE400B500
(1756900802.395009) can0 201#7C5C0100CD00F0FF
(1756900802.402005) can0 100#1C9203E760849969
(1756900802.405010) can0 200#5C895C915D065D0E
(1756900802.409008) can0 101#0000000001007000
(1756900802.411005) can0 300#A6FFC3FFDA00DF00
(1756900802.415010) can0 201#965C0400CA00F7FF
(1756900802.422004) can0 100#1C9603E760849969
(1756900802.423007) can0 500#07FE05770900007B
(1756900802.425021) can0 200#5C945C985D1F5D0A
(1756900802.427021) can0 400#0246032803290359
(1756900802.429006) can0 101#0000010000007000
(1756900802.431011) can0 300#0FFF03FF3F001C00
(1756900802.435017) can0 201#985C0200C9000A00
(1756900802.442003) can0 100#1C9B03E860849968
(1756900802.445017) can0 200#5C9F5CB05D295D28
(1756900802.449009) can0 101#0200010001007000
(1756900802.451009) can0 300#0EFF11FF44003C00
(1756900802.455022) can0 201#B35CFEFFC300FEFF
(1756900802.462021) can0 100#1C9F03E860849968
(1756900802.465009) can0 200#5CCA5CA55D505D3F
(1756900802.469009) can0 101#00000200FEFF7000
(1756900802.471022) can0 300#89FFBAFFB7009A00
(1756900802.475015) can0 201#BA5CFFFFCC000500
(1756900802.477000) can0 400#035303350335035A
(1756900802.482010) can0 100#1CA303E860849969
(1756900802.485003) can0 200#5CBD5CB45D4A5D4A
(1756900802.489002) can0 101#0100000001007000
(1756900802.491011) can0 300#8EFF70FFAF00A300
(1756900802.495008) can0 201#C55CFCFFC900E7FF
(1756900802.502019) can0 100#1CA803E860849967
(1756900802.505006) can0 200#5CCB5CCB5D555D5F
(1756900802.509001) can0 101#00000200FFFF7000
(1756900802.511023) can0 300#83FF5AFF80006D00
(1756900802.515014) can0 201#CF5C0400C800FDFF
(1756900802.522004) can0 100#1CAC03E860849968
(1756900802.523003) can0 500#074006DB0900007B
(1756900802.525025) can0 200#5CD65CE05D6B5D63
(1756900802.527005) can0 400#0030031103110359
(1756900802.529000) can0 101#0000000002007000
(1756900802.531008) can0 300#34FF3DFF3A004A00
(1756900802.535004) can0 201#DA5C0300C800F6FF
(1756900802.542004) can0 100#1CB103E860849969
(1756900802.545013) can0 200#5D0B5CE95D605D70
(1756900802.549016) can0 101#0300000002007000
(1756900802.551023) can0 300#1CFF28FF2C001800
(1756900802.555020) can0 201#F75C0400C800FAFF
(1756900802.562006) can0 100#1CB503E860849969
(1756900802.565001) can0 200#5CE45CF25D7E5D89
(1756900802.569012) can0 101#00000000FBFF7000
(1756900802.571018) can0 300#99FFAEFFA2009800
(1756900802.575020) can0 201#FD5C0100CA000600
(1756900802.577000) can0 400#013C031D031E0359
(1756900802.582021) can0 100#1CB903E860849969
(1756900802.585001) can0 200#5D075D195D935D92
(1756900802.589000) can0 101#0000000004007000
(1756900802.591014) can0 300#BFFFCBFFD300D200
(1756900802.595014) can0 201#0F5DF7FFC900F8FF
(1756900802.602001) can0 100#1CBE03E860849967
(1756900802.605017) can0 200#5D0C5D055D935D91
(1756900802.609010) can0 101#01000100FCFF7000
(1756900802.611015) can0 300#07FF08FF1F001600
(1756900802.615019) can0 201#215D0400C100F8FF
(1756900802.622008) can0 100#1CC203E860849968
(1756900802.623013) can0 500#0782063F0A00007B
(1756900802.625024) can0 200#5D265D1D5DC35D9B
(1756900802.627010) can0 400#0245032803280359
(1756900802.629005) can0 101#00000000FEFF7000
(1756900802.631001) can0 300#29FF1EFF29004200
(1756900802.635010) can0 201#2C5D0000C5000500
(1756900802.642002) can0 100#1CC603E860849969
(1756900802.645001) can0 200#5D2C5D405DA75DB3
(1756900802.649001) can0 101#0000000005007000
(1756900802.651006) can0 300#72FF76FFA600A400
(1756900802.655001) can0 201#405D0100C7000A00
(1756900802.662023) can0 100#1CCA03E860849969
(1756900802.665020) can0 200#5D475D325DCD5DD7
(1756900802.669014) can0 101#00000000FDFF7000
(1756900802.671022) can0 300#81FF5AFFBD009300
(1756900802.675020) can0 201#4D5D0700BC001200
(1756900802.677022) can0 400#035203340334035A
(1756900802.682014) can0 100#1CCF03E86084996A
(1756900802.685018) can0 200#5D615D545DE35DD2
(1756900802.689019) can0 101#0000020001007000
(1756900802.691024) can0 300#A3FF8AFF9F009600
(1756900802.695018) can0 201#4D5D0100C1000900
(1756900802.702005) can0 100#1CD303E860849969
(1756900802.705023) can0 200#5D595D5A5DDF5DDE
(1756900802.709003) can0 101#0100010000007000
(1756900802.711022) can0 300#42FF37FF4C001800
(1756900802.715001) can0 201#6A5DFFFFC100FCFF
(1756900802.722002) can0 100#1CD703E860849969
(1756900802.723003) can0 500#07C406A30A00007B
(1756900802.725022) can0 200#5D685D8B5E0A5DFD
(1756900802.727011) can0 400#002F031003110359
(1756900802.729023) can0 101#0000000002007000
(1756900802.731005) can0 300#1AFF00FF0C001D00
(1756900802.735003) can0 201#715DFCFFC7000700
(1756900802.742010) can0 100#1CDB03E860849968
(1756900802.745018) can0 200#5D735D695DF65DFA
(1756900802.749016) can0 101#0000020004007000
(1756900802.751003) can0 300#ACFFB4FFC100A400
(1756900802.755000) can0 201#7F5DFCFFC3000600
(1756900802.762019) can0 100#1CE003E86084996B
(1756900802.765007) can0 200#5D825D7E5E105E12
(1756900802.769006) can0 101#0100000002007000
(1756900802.771013) can0 300#ACFFD0FFC700BC00
(1756900802.775011) can0 201#905D0100B7000400
(1756900802.777012) can0 400#013B031D031E0359
(1756900802.782011) can0 100#1CE403E860849968
(1756900802.785008) can0 200#5D985D995E195E14
(1756900802.789021) can0 101#01000000FEFF7000
(1756900802.791019) can0 300#19FF1CFF4200F5FF
(1756900802.795007) can0 201#985D0300BF00F7FF
(1756900802.802009) can0 100#1CE803E860849968
(1756900802.805023) can0 200#5DB15D9C5E1B5E1D
(1756900802.809012) can0 101#03000000FBFF7000
(1756900802.811004) can0 300#24FF2DFF44004100
(1756900802.815006) can0 201#AA5D0400C3000100
(1756900802.822021) can0 100#1CEC03E860849968
(1756900802.823006) can0 500#070707070B00007B
(1756900802.825023) can0 200#5DA45DAF5E315E34
(1756900802.827002) can0 400#0245032603260359
(1756900802.829012) can0 101#00000000FBFF7000
(1756900802.831019) can0 300#74FF59FF73007400
(1756900802.835006) can0 201#B75D0100C500FCFF
(1756900802.842025) can0 100#1CF003E86084996B
(1756900802.845002) can0 200#5DBF5DB45E555E35
(1756900802.849016) can0 101#00000100FDFF7000
(1756900802.851022) can0 300#8FFF90FFAE009A00
(1756900802.855004) can0 201#C15DFFFFC600F5FF
(1756900802.862021) can0 100#1CF403E860849969
(1756900802.865002) can0 200#5DC55DC55E4A5E38
(1756900802.869019) can0 101#0100010002007000
(1756900802.871002) can0 300#A4FF9DFFA300B600
(1756900802.875006) can0 201#D15DFEFFBD000C00
(1756900802.877014) can0 400#035003330332035A
(1756900802.882024) can0 100#1CF903E86084996A
(1756900802.885011) can0 200#5DC45DD05E4B5E64
(1756900802.889011) can0 101#0000020000007000
(1756900802.891017) can0 300#1DFF2CFF24002A00
(1756900802.895023) can0 201#DD5D0100B900EDFF
(1756900802.902017) can0 100#1CFD03E860849969
(1756900802.905012) can0 200#5DE95DDE5E555E6A
(1756900802.909014) can0 101#0100030006007000
(1756900802.911015) can0 300#29FF1AFF14001300
(1756900802.915002) can0 201#EA5D0800C7000900
(1756900802.922007) can0 100#1D0103E860849969
(1756900802.923018) can0 500#0749076B0B00007B
(1756900802.925020) can0 200#5DE85DE95E6E5E80
(1756900802.927006) can0 400#002F031103100359
(1756900802.929004) can0 101#03000000FEFF7000
(1756900802.931022) can0 300#BCFFD3FFDE00D000
(1756900802.935017) can0 201#F85DFBFFBA000E00
(1756900802.942019) can0 100#1D0503E860849969
(1756900802.945015) can0 200#5E085E0D5E7A5E78
(1756900802.949008) can0 101#00000000FFFF7000
(1756900802.951007) can0 300#B5FFBAFFCE00CB00
(1756900802.955011) can0 201#005EFFFFBB000000
(1756900802.962017) can0 100#1D0903E860849969
(1756900802.965019) can0 200#5E085E065E8E5E8A
(1756900802.969005) can0 101#0000020000007000
(1756900802.971018) can0 300#3BFF45FF20004500
(1756900802.975002) can0 201#115E0000B8000200
(1756900802.977010) can0 400#013A031C031C0359
(1756900802.982020) can0 100#1D0D03E860849969
(1756900802.985015) can0 200#5E085E1F5E945E9B
(1756900802.989009) can0 101#0100020001007000
(1756900802.991017) can0 300#43FF43FF3E004100
(1756900802.995013) can0 201#185E0400B600F0FF
(1756900803.002019) can0 100#1D1103E860849969
(1756900803.005025) can0 200#5E135E1A5E935EB8
(1756900803.009012) can0 101#0000000004007000
(1756900803.011015) can0 300#5EFF5DFF53005500
(1756900803.015014) can0 201#255EFFFFBA000D00
(1756900803.022001) can0 100#1D1503E860849969
(1756900803.023001) can0 500#078C07CF0B00007B
(1756900803.025005) can0 200#5E3F5E315E925EAE
(1756900803.027011) can0 400#0244032603260359
(1756900803.029016) can0 101#02000000FCFF7000
(1756900803.031004) can0 300#A2FFAFFF9A009A00
(1756900803.035014) can0 201#395E0300B5000E00
(1756900803.042001) can0 100#1D1903E860849967
(1756900803.045001) can0 200#5E415E625EC05EAB
(1756900803.049001) can0 101#00000000FDFF7000
(1756900803.051011) can0 300#B9FFA8FFAA00A300
(1756900803.055000) can0 201#455E0100B8000900
(1756900803.062004) can0 100#1D1D03E860849969
(1756900803.065017) can0 200#5E435E535ED25ECC
(1756900803.069020) can0 101#0300000001007000
(1756900803.071022) can0 300#25FF2DFF21003300
(1756900803.075013) can0 201#515EFFFFB900FEFF
(1756900803.077003) can0 400#035003320332035A
(1756900803.082005) can0 100#1D2103E860849969
(1756900803.085012) can0 200#5E585E7C5ECF5ED9
(1756900803.089015) can0 101#0300010004007000
(1756900803.091015) can0 300#18FF21FF2D001A00
(1756900803.095011) can0 201#5D5EFFFFB8000700
(1756900803.102015) can0 100#1D2503E86084996A
(1756900803.105021) can0 200#5E6A5E5F5EEA5EDB
(1756900803.109001) can0 101#00000000FBFF7000
(1756900803.111005) can0 300#AEFFBEFFC800CD00
(1756900803.115004) can0 201#725E0000B600FAFF
(1756900803.122025) can0 100#1D2903E860849969
(1756900803.123000) can0 500#07CF07330C00007B
(1756900803.125005) can0 200#5E785E5A5EDF5EF0
(1756900803.127019) can0 400#002E0310030F0359
(1756900803.129007) can0 101#04000100FDFF7000
(1756900803.131017) can0 300#BAFFAAFFBB00C100
(1756900803.135009) can0 201#705E0100AF000500
(1756900803.142013) can0 100#1D2D03E86084996A
(1756900803.145006) can0 200#5E975E8A5EF45EE6
(1756900803.149023) can0 101#00000000FFFF7000
(1756900803.151015) can0 300#5BFF49FF4B004000
(1756900803.155008) can0 201#8A5EFDFFAF001100
(1756900803.162019) can0 100#1D3103E86084996A
(1756900803.165005) can0 200#5E875E935F045EF2
(1756900803.169020) can0 101#0100010002007000
(1756900803.171020) can0 300#52FF4EFF47004400
(1756900803.175021) can0 201#945E0100B3000B00
(1756900803.177025) can0 400#013A031B031B0359
(1756900803.182015) can0 100#1D3503E860849969
(1756900803.185005) can0 200#5E925E935F0E5F00
(1756900803.189003) can0 101#0000000001007000
(1756900803.191024) can0 300#35FF46FF46003800
(1756900803.195023) can0 201#9B5EFCFFB000F8FF
(1756900803.202005) can0 100#1D3903E860849969
(1756900803.205025) can0 200#5E8A5E975F225F32
(1756900803.209008) can0 101#02000000FFFF7000
(1756900803.211022) can0 300#A9FF86FFA0009100
(1756900803.215016) can0 201#AA5EFEFFB000EEFF
(1756900803.222022) can0 100#1D3D03E86084996A
(1756900803.223012) can0 500#071308970C00007B
(1756900803.225006) can0 200#5ECC5EB35F3A5F22
(1756900803.227010) can0 400#0244032503260359
(1756900803.229021) can0 101#0000000000007000
(1756900803.231010) can0 300#D0FFDEFFB800CC00
(1756900803.235018) can0 201#BD5E0400B300FFFF
(1756900803.242009) can0 100#1D4003E86084996B
(1756900803.245020) can0 200#5ED35EB55F2C5F2D
(1756900803.249021) can0 101#02000100F9FF7000
(1756900803.251015) can0 300#26FF30FF16003900
(1756900803.255011) can0 201#C35EFCFFB1000200
(1756900803.262024) can0 100#1D4403E86084996A
(1756900803.265020) can0 200#5EBB5EDC5F4B5F51
(1756900803.269016) can0 101#0000000001007000
(1756900803.271021) can0 300#1BFF1AFF1A000900
(1756900803.275024) can0 201#CC5E0300AE00F7FF
(1756900803.277016) can0 400#034F033003310359
(1756900803.282021) can0 100#1D4803E860849969
(1756900803.285016) can0 200#5ED85EDA5F525F54
(1756900803.289022) can0 101#0000000004007000
(1756900803.291015) can0 300#BDFFD2FFB300BC00
(1756900803.295003) can0 201#E65E0200B0000900
(1756900803.302006) can0 100#1D4C03E860849968
(1756900803.305003) can0 200#5F055ECF5F6A5F64
(1756900803.309020) can0 101#02000000FDFF7000
(1756900803.311021) can0 300#A8FFB4FFA7009600
(1756900803.315017) can0 201#E65EFDFFA700FAFF
(1756900803.322001) can0 100#1D5003E860849969
(1756900803.323001) can0 500#075608FB0C00007B
(1756900803.325007) can0 200#5EF95EE55F6C5F67
(1756900803.327015) can0 400#002D031103100359
(1756900803.329016) can0 101#00000100FEFF7000
(1756900803.331000) can0 300#57FF64FF54007300
(1756900803.335019) can0 201#ED5E0600AD00FDFF
(1756900803.342013) can0 100#1D5403E86084996B
(1756900803.345002) can0 200#5EEA5EF95F795F67
(1756900803.349010) can0 101#03000100FEFF7000
(1756900803.351009) can0 300#41FF53FF44004300
(1756900803.355016) can0 201#025FF8FFB700F5FF
(1756900803.362005) can0 100#1D5703E860849969
(1756900803.365001) can0 200#5EF15F1C5F7C5F79
(1756900803.369021) can0 101#01000400FFFF7000
(1756900803.371013) can0 300#22FF39FF47002A00
(1756900803.375024) can0 201#105F0000B100F6FF
(1756900803.377019) can0 400#0139031B031A0359
(1756900803.382019) can0 100#1D5B03E860849969
(1756900803.385008) can0 200#5F195F205F7D5F8D
(1756900803.389017) can0 101#00000100FEFF7000
(1756900803.391013) can0 300#ADFFA3FF9D00C000
(1756900803.395006) can0 201#1F5F0900AA00FFFF
(1756900803.402010) can0 100#1D5F03E86084996B
(1756900803.405004) can0 200#5F385F335F9E5F9E
(1756900803.409003) can0 101#0300010001007000
(1756900803.411016) can0 300#D9FFCAFFAA00CD00
(1756900803.415022) can0 201#295FF8FFAB00FBFF
(1756900803.422021) can0 100#1D6303E86084996A
(1756900803.423022) can0 500#079A085F0D00007B
(1756900803.425007) can0 200#5F365F425FAB5FA6
(1756900803.427016) can0 400#0243032503240359
(1756900803.429005) can0 101#0200000006007000
(1756900803.431001) can0 300#11FF2FFF24002000
(1756900803.435007) can0 201#2F5F0300A700F9FF
(1756900803.442006) can0 100#1D6703E86084996B
(1756900803.445000) can0 200#5F295F3C5FB85FBE
(1756900803.449003) can0 101#01000000F9FF7000
(1756900803.451019) can0 300#32FF3DFF23002800
(1756900803.455001) can0 201#3D5FFCFFAE00FBFF
(1756900803.462015) can0 100#1D6A03E86084996A
(1756900803.465003) can0 200#5F4E5F505FBB5FC6
(1756900803.469001) can0 101#01000200FAFF7000
(1756900803.471002) can0 300#A2FFB0FFAA009E00
(1756900803.475000) can0 201#545F0100AB00FAFF
(1756900803.477012) can0 400#034D0330032F0359
(1756900803.482001) can0 100#1D6E03E86084996C
(1756900803.485007) can0 200#5F455F645FD25FC7
(1756900803.489015) can0 101#00000000FFFF7000
(1756900803.491015) can0 300#ADFF94FF9D00A200
(1756900803.495001) can0 201#575FFDFFAC00FBFF
(1756900803.502017) can0 100#1D7203E860849969
(1756900803.505022) can0 200#5F5A5F5B5FD75FDB
(1756900803.509013) can0 101#0100020003007000
(1756900803.511013) can0 300#7FFF8AFF69007B00
(1756900803.515003) can0 201#6C5F0000AC00F7FF
(1756900803.522000) can0 100#1D7503E86084996B
(1756900803.523021) can0 500#07DD08C30D00007B
(1756900803.525017) can0 200#5F7A5F625FE25FD9
(1756900803.527005) can0 400#002D0310030E0359
(1756900803.529010) can0 101#00000000FEFF7000
(1756900803.531012) can0 300#70FF61FF39001D00
(1756900803.535017) can0 201#6F5F0300A9000A00
(1756900803.542013) can0 100#1D7903E86084996B
(1756900803.545003) can0 200#5F5D5F8B5FEB5FED
(1756900803.549010) can0 101#00000000FCFF7000
(1756900803.551000) can0 300#2BFF1EFF1E000700
(1756900803.555001) can0 201#795F0100A9000F00
(1756900803.562013) can0 100#1D7D03E860849969
(1756900803.565012) can0 200#5F825F7C5FF95FF4
(1756900803.569004) can0 101#03000400FCFF7000
(1756900803.571017) can0 300#C7FFC3FFAE009300
(1756900803.575015) can0 201#925FFDFFA500F0FF
(1756900803.577007) can0 400#0139031A031A0359
(1756900803.582016) can0 100#1D8003E86084996A
(1756900803.585023) can0 200#5F875F7F6007600B
(1756900803.589005) can0 101#0500000001007000
(1756900803.591014) can0 300#E2FFE6FFBC00B200
(1756900803.595016) can0 201#915FFFFFAB00F6FF
(1756900803.602013) can0 100#1D8403E86084996D
(1756900803.605005) can0 200#5F9A5FA2600F600D
(1756900803.609010) can0 101#0000030002007000
(1756900803.611000) can0 300#2AFF21FF28001500
(1756900803.615009) can0 201#9C5FFFFFA3000400
(1756900803.622015) can0 100#1D8803E86084996B
(1756900803.623022) can0 500#072109270E00007B
(1756900803.625022) can0 200#5FAD5FA060106009
(1756900803.627006) can0 400#0242032403240359
(1756900803.629004) can0 101#00000100FCFF7000
(1756900803.631011) can0 300#1FFF2FFF2C002F00
(1756900803.635020) can0 201#A35FFAFFAB00F4FF
(1756900803.642008) can0 100#1D8B03E86084996A
(1756900803.645025) can0 200#5F9E5FA8601C6020
(1756900803.649007) can0 101#0000020006007000
(1756900803.651011) can0 300#9EFF95FF8F008400
(1756900803.655021) can0 201#B35FFCFFA6000F00
(1756900803.662015) can0 100#1D8F03E86084996A
(1756900803.665022) can0 200#5FB35FC260366033
(1756900803.669019) can0 101#02000100FDFF7000
(1756900803.671008) can0 300#91FF91FF8F009200
(1756900803.675021) can0 201#C15F0100AA000600
(1756900803.677000) can0 400#034E032F032E0359
(1756900803.682024) can0 100#1D9303E86084996B
(1756900803.685002) can0 200#5FD35FBF6048601B
(1756900803.689019) can0 101#01000000FFFF7000
(1756900803.691002) can0 300#ABFFAEFF8D007B00
(1756900803.695013) can0 201#CC5FFFFFA0001100
(1756900803.702007) can0 100#1D9603E86084996C
(1756900803.705000) can0 200#5FDB5FD260446059
(1756900803.709001) can0 101#0000010007007000
(1756900803.711013) can0 300#38FF3DFF27003A00
(1756900803.715002) can0 201#D55FF9FFA7001B00
(1756900803.722003) can0 100#1D9A03E86084996D
(1756900803.723017) can0 500#0765098B0E00007B
(1756900803.725006) can0 200#5FDF5FCB6054605C
(1756900803.727016) can0 400#002D030F030E0358
(1756900803.729001) can0 101#0300020002007000
(1756900803.731016) can0 300#34FF0EFFFDFF1400
(1756900803.735010) can0 201#E35FFEFFA3000500
(1756900803.742017) can0 100#1D9D03E860849969
(1756900803.745014) can0 200#5FE85FE46060605E
(1756900803.749009) can0 101#0100000000007000
(1756900803.751015) can0 300#C7FFBEFFAA00B900
(1756900803.755018) can0 201#F65FFEFFA900FBFF
(1756900803.762007) can0 100#1DA103E86084996C
(1756900803.765018) can0 200#60025FF16052606C
(1756900803.769002) can0 101#00000000F8FF7000
(1756900803.771014) can0 300#B9FFD8FFB700BD00
(1756900803.775010) can0 201#FF5FFDFFA2000B00
(1756900803.777022) can0 400#0137031903190359
(1756900803.782022) can0 100#1DA403E860849969
(1756900803.785024) can0 200#601B5FF86069607D
(1756900803.789005) can0 101#0000010005007000
(1756900803.791005) can0 300#25FF30FF28001C00
(1756900803.795016) can0 201#076002009D000B00
(1756900803.802008) can0 100#1DA803E86084996B
(1756900803.805024) can0 200#600B6013607B6082
(1756900803.809015) can0 101#0000010002007000
(1756900803.811009) can0 300#2CFF3AFF2A003A00
(1756900803.815003) can0 201#126000009E000F00
(1756900803.822010) can0 100#1DAC03E86084996A
(1756900803.823007) can0 500#07AA09EF0E00007B
(1756900803.825012) can0 200#60206011607F6096
(1756900803.827017) can0 400#0242032303230359
(1756900803.829021) can0 101#00000200FEFF7000
(1756900803.831005) can0 300#95FF88FF5E007F00
(1756900803.835016) can0 201#19600600A1000500
(1756900803.842020) can0 100#1DAF03E86084996B
(1756900803.845007) can0 200#6030601960926092
(1756900803.849002) can0 101#00000000FEFF7000
(1756900803.851019) can0 300#A0FF8EFF92008100
(1756900803.855007) can0 201#2D600500A000FFFF
(1756900803.862001) can0 100#1DB303E86084996C
(1756900803.865010) can0 200#602E605360B56095
(1756900803.869006) can0 101#01000000FFFF7000
(1756900803.871018) can0 300#D4FFB7FF9200A100
(1756900803.875023) can0 201#336003009F00EEFF
(1756900803.877009) can0 400#034D032D032F0359
(1756900803.882021) can0 100#1DB603E86084996B
(1756900803.885004) can0 200#6033604A60A760B5
(1756900803.889012) can0 101#01000100FCFF7000
(1756900803.891015) can0 300#30FF4CFF2E002300
(1756900803.895013) can0 201#3B60FAFF9B00F1FF
(1756900803.902020) can0 100#1DBA03E86084996B
(1756900803.905017) can0 200#603F604060AB60B3
(1756900803.909021) can0 101#0100020003007000
(1756900803.911007) can0 300#1EFF22FF1A00FEFF
(1756900803.915024) can0 201#4360F8FFA400FBFF
(1756900803.922014) can0 100#1DBD03E86084996B
(1756900803.923009) can0 500#07EE09530F00007B
(1756900803.925000) can0 200#604F606960B560B5
(1756900803.927018) can0 400#002D030F030E0358
(1756900803.929005) can0 101#0300000002007000
(1756900803.931011) can0 300#CBFFD0FFAA00A900
(1756900803.935015) can0 201#586001009B00F3FF
(1756900803.942003) can0 100#1DC003E860849969
(1756900803.945022) can0 200#6080605B60CB60B9
(1756900803.949017) can0 101#0100000000007000
(1756900803.951010) can0 300#CBFFD3FF9600B500
(1756900803.955002) can0 201#63600100A100F0FF
(1756900803.962020) can0 100#1DC403E86084996C
(1756900803.965022) can0 200#605C607060CE60C1
(1756900803.969023) can0 101#02000000FFFF7000
(1756900803.971013) can0 300#37FF5BFF2D001900
(1756900803.975022) can0 201#6C6001009F00F9FF
(1756900803.977010) can0 400#0135031803190359
(1756900803.982002) can0 100#1DC703E86084996D
(1756900803.985006) can0 200#606C606B60D060D7
(1756900803.989017) can0 101#00000000FEFF7000
(1756900803.991008) can0 300#61FF48FF40002E00
(1756900803.995022) can0 201#78600500A000FCFF
(1756900804.002012) can0 100#1DCB03E86084996B
(1756900804.005015) can0 200#6072606A60D960DD
(1756900804.009000) can0 101#0000010003007000
(1756900804.011004) can0 300#7BFF5AFF53005D00
(1756900804.015017) can0 201#8B60FEFF9E000600
(1756900804.022022) can0 100#1DCE03E86084996C
(1756900804.023018) can0 500#07330AB70F00007B
(1756900804.025020) can0 200#6079608060FD60F3
(1756900804.027009) can0 400#0241032303230359
(1756900804.029000) can0 101#0000000002007000
(1756900804.031008) can0 300#A4FFB0FF91008600
(1756900804.035003) can0 201#9260FDFFA100F4FF
(1756900804.042003) can0 100#1DD203E86084996D
(1756900804.045007) can0 200#608F609361006102
(1756900804.049020) can0 101#00000000FAFF7000
(1756900804.051020) can0 300#D1FFCFFFA900A200
(1756900804.055014) can0 201#9B60FBFF9D000500
(1756900804.062019) can0 100#1DD503E86084996B
(1756900804.065025) can0 200#60B560AB61246112
(1756900804.069015) can0 101#0200000005007000
(1756900804.071017) can0 300#32FF4CFF25001A00
(1756900804.075011) can0 201#AB60FDFF9900F6FF
(1756900804.077008) can0 400#034C032E032D0359
(1756900804.082002) can0 100#1DD803E86084996A
(1756900804.085015) can0 200#60A760B0610B610C
(1756900804.089020) can0 101#0300010008007000
(1756900804.091008) can0 300#1EFF24FF0300F1FF
(1756900804.095014) can0 201#A860FBFFA000F8FF
(1756900804.102008) can0 100#1DDC03E86084996D
(1756900804.105021) can0 200#60BA60B96113611B
(1756900804.109007) can0 101#0000000001007000
(1756900804.111017) can0 300#FAFFE5FFC5009200
(1756900804.115019) can0 201#BA6005009200F4FF
(1756900804.122022) can0 100#1DDF03E86084996A
(1756900804.123008) can0 500#07770A1B1000007B
(1756900804.125011) can0 200#60AC60AD61396112
(1756900804.127021) can0 400#002D030E030E0358
(1756900804.129012) can0 101#0000010000007000
(1756900804.131001) can0 300#BCFFC9FF9A009C00
(1756900804.135016) can0 201#CD6001009E000600
(1756900804.142008) can0 100#1DE203E860849969
(1756900804.145025) can0 200#60B960EA61446143
(1756900804.149019) can0 101#00000000FDFF7000
(1756900804.151024) can0 300#6EFF72FF2A005200
(1756900804.155021) can0 201#CF60FEFF97000400
(1756900804.162020) can0 100#1DE603E86084996A
(1756900804.165009) can0 200#60DE60E4613E6141
(1756900804.169017) can0 101#0000020002007000
(1756900804.171006) can0 300#54FF5DFF10002E00
(1756900804.175014) can0 201#DA6006009000F4FF
(1756900804.177019) can0 400#0135031803180359
(1756900804.182015) can0 100#1DE903E86084996B
(1756900804.185010) can0 200#60CD60D961416146
(1756900804.189012) can0 101#0300000007007000
(1756900804.191003) can0 300#61FF7AFF3A003700
(1756900804.195007) can0 201#E96002009C00F9FF
(1756900804.202022) can0 100#1DEC03E860849969
(1756900804.205008) can0 200#60E9610A61616149
(1756900804.209012) can0 101#01000100F9FF7000
(1756900804.211020) can0 300#C3FFB9FF8C008D00
(1756900804.215013) can0 201#F260FFFF9B00F1FF
(1756900804.222000) can0 100#1DF003E86084996B
(1756900804.223024) can0 500#07BC0A7F1000007B
(1756900804.225021) can0 200#60FA60E461716156
(1756900804.227004) can0 400#0241032403240359
(1756900804.229003) can0 101#02000000FDFF7000
(1756900804.231005) can0 300#E3FFD1FF96009D00
(1756900804.235000) can0 201#FA60090089000000
(1756900804.242006) can0 100#1DF303E86084996A
(1756900804.245023) can0 200#60F260E561836159
(1756900804.249003) can0 101#00000000FBFF7000
(1756900804.251012) can0 300#56FF5CFF1900FFFF
(1756900804.255013) can0 201#046100009200EFFF
(1756900804.262001) can0 100#1DF603E86084996C
(1756900804.265009) can0 200#6111610861656176
(1756900804.269015) can0 101#0000010002007000
(1756900804.271019) can0 300#46FF4CFFFCFF0000
(1756900804.275008) can0 201#1761F9FF9100FBFF
(1756900804.277008) can0 400#034A032C032D0359
(1756900804.282010) can0 100#1DF903E86084996D
(1756900804.285010) can0 200#6111611861866183
(1756900804.289009) can0 101#0000000003007000
(1756900804.291006) can0 300#E2FFD3FF7B00AA00
(1756900804.295023) can0 201#226102009F000E00
(1756900804.302011) can0 100#1DFD03E86084996E
(1756900804.305003) can0 200#611F610E61866187
(1756900804.309001) can0 101#0000000000007000
(1756900804.311020) can0 300#D5FFC3FF98006D00
(1756900804.315015) can0 201#2B61FFFF93000000
(1756900804.322023) can0 100#1E0003E86084996D
(1756900804.323019) can0 500#07010BE31000007B
(1756900804.325023) can0 200#6136612861A1619B
(1756900804.327023) can0 400#002B030F030E0358
(1756900804.329021) can0 101#01000200FDFF7000
(1756900804.331013) can0 300#6EFF7EFF6C005200
(1756900804.335013) can0 201#2B61FCFF9100FBFF
(1756900804.342010) can0 100#1E0303E86084996C
(1756900804.345021) can0 200#612D613C619861A2
(1756900804.349016) can0 101#0100000001007000
(1756900804.351006) can0 300#49FF72FF37002400
(1756900804.355009) can0 201#3361FFFF9400FAFF
(1756900804.362003) can0 100#1E0603E86084996C
(1756900804.365004) can0 200#612F6133619061A8
(1756900804.369020) can0 101#01000100FCFF7000
(1756900804.371003) can0 300#53FF54FF22001D00
(1756900804.375024) can0 201#4661FEFF92000B00
(1756900804.377013) can0 400#0135031703160359
(1756900804.382005) can0 100#1E0A03E86084996B
(1756900804.385013) can0 200#6141613961BE61BA
(1756900804.389001) can0 101#0000010003007000
(1756900804.391004) can0 300#D1FFDDFF8D00A100
(1756900804.395002) can0 201#5661000090000300
(1756900804.402011) can0 100#1E0D03E86084996D
(1756900804.405024) can0 200#6156614D61C961B6
(1756900804.409015) can0 101#01000300FEFF7000
(1756900804.411016) can0 300#E7FF1E00C000B800
(1756900804.415023) can0 201#5C6106008F00EDFF
(1756900804.422022) can0 100#1E1003E86084996D
(1756900804.423011) can0 500#07460B471100007B
(1756900804.425016) can0 200#614C615661AF61B4
(1756900804.427014) can0 400#0240032303220359
(1756900804.429014) can0 101#0100000002007000
(1756900804.431012) can0 300#2DFF24FF11000000
(1756900804.435016) can0 201#5E6107009200FFFF
(1756900804.442010) can0 100#1E1303E86084996B
(1756900804.445018) can0 200#6174616F61E161C5
(1756900804.449013) can0 101#0000000002007000
(1756900804.451015) can0 300#39FF47FF17003300
(1756900804.455003) can0 201#6E61030092000900
(1756900804.462023) can0 100#1E1603E86084996B
(1756900804.465020) can0 200#6179616E61CD61EC
(1756900804.469008) can0 101#01000200FEFF7000
(1756900804.471018) can0 300#C7FFEBFF8A008F00
(1756900804.475024) can0 201#776104008D00FBFF
(1756900804.477015) can0 400#0349032A032B0359
(1756900804.482018) can0 100#1E1A03E86084996D
(1756900804.485003) can0 200#617A617961E061E0
(1756900804.489015) can0 101#00000200FFFF7000
(1756900804.491006) can0 300#B6FFB4FF9C009A00
(1756900804.495016) can0 201#856101009000F6FF
(1756900804.502008) can0 100#1E1D03E86084996B
(1756900804.505001) can0 200#6177618E61EB61F4
(1756900804.509015) can0 101#02000000FFFF7000
(1756900804.511009) can0 300#8DFF83FF79006D00
(1756900804.515012) can0 201#8E6103009200F5FF
(1756900804.522023) can0 100#1E2003E86084996B
(1756900804.523022) can0 500#078C0BAB1100007B
(1756900804.525011) can0 200#618C618F62166202
(1756900804.527019) can0 400#002B030E030D0358
(1756900804.529008) can0 101#0200000000007000
(1756900804.531000) can0 300#66FF6BFF38002700
(1756900804.535009) can0 201#9961FEFF96000500
(1756900804.542008) can0 100#1E2303E86084996D
(1756900804.545018) can0 200#61A061A162046201
(1756900804.549005) can0 101#0200010000007000
(1756900804.551008) can0 300#40FF29FFF5FFFFFF
(1756900804.555019) can0 201#AD6105008F000700
(1756900804.562012) can0 100#1E2603E86084996B
(1756900804.565006) can0 200#61B361A062076219
(1756900804.569018) can0 101#01000000FDFF7000
(1756900804.571004) can0 300#C9FFE3FFB300A000
(1756900804.575011) can0 201#A561FDFF8B000D00
(1756900804.577008) can0 400#0135031703160359
(1756900804.582009) can0 100#1E2903E86084996C
(1756900804.585000) can0 200#61BE619F62256216
(1756900804.589019) can0 101#00000000FFFF7000
(1756900804.591012) can0 300#E0FFF1FFBF00C500
(1756900804.595005) can0 201#B761FEFF8F000200
(1756900804.602018) can0 100#1E2C03E86084996C
(1756900804.605012) can0 200#61B661C1620E621D
(1756900804.609014) can0 101#0200000004007000
(1756900804.611021) can0 300#2AFF49FFFDFF0800
(1756900804.615016) can0 201#B561FBFF88000200
(1756900804.622011) can0 100#1E2F03E86084996D
(1756900804.623012) can0 500#07D10B0F1200007B
(1756900804.625022) can0 200#61BD61C46224623A
(1756900804.627003) can0 400#023F032103210359
(1756900804.629009) can0 101#01000000FDFF7000
(1756900804.631002) can0 300#49FF43FF02001100
(1756900804.635005) can0 201#C961FAFF8D00FAFF
(1756900804.642005) can0 100#1E3203E86084996C
(1756900804.645011) can0 200#61DD61D16232621B
(1756900804.649008) can0 101#01000300FBFF7000
(1756900804.651017) can0 300#A4FFA1FF80009800
(1756900804.655004) can0 201#DA61FEFF92000E00
(1756900804.662024) can0 100#1E3603E86084996D
(1756900804.665006) can0 200#61D461D16237621E
(1756900804.669020) can0 101#0000000002007000
(1756900804.671008) can0 300#C8FFB4FF7A009600
(1756900804.675015) can0 201#E26100008B001400
(1756900804.677005) can0 400#0349032B032A0359
(1756900804.682003) can0 100#1E3903E86084996E
(1756900804.685010) can0 200#61EA61E3624D624E
(1756900804.689006) can0 101#0000000003007000
(1756900804.691012) can0 300#D1FFC1FF7800A400
(1756900804.695015) can0 201#EC61030088000A00
(1756900804.702013) can0 100#1E3C03E86084996B
(1756900804.705012) can0 200#61DF61F6625E6257
(1756900804.709004) can0 101#0100000000007000
(1756900804.711000) can0 300#6DFF38FF36001B00
(1756900804.715002) can0 201#E861050092000200
(1756900804.722003) can0 100#1E3F03E86084996E
(1756900804.723010) can0 500#07170C731200007B
(1756900804.725002) can0 200#620961F3625B625B
(1756900804.727007) can0 400#002C030D030D0358
(1756900804.729021) can0 101#00000000FEFF7000
(1756900804.731002) can0 300#1CFF46FF0A00E8FF
(1756900804.735018) can0 201#F861F7FF8600FFFF
(1756900804.742004) can0 100#1E4203E86084996D
(1756900804.745011) can0 200#620361EC62656257
(1756900804.749002) can0 101#0400000000007000
(1756900804.751003) can0 300#EEFFFAFF91009F00
(1756900804.755001) can0 201#0B6204008D00F2FF
(1756900804.762009) can0 100#1E4503E86084996D
(1756900804.765002) can0 200#62066214627D6257
(1756900804.769005) can0 101#0000000000007000
(1756900804.771014) can0 300#0D00E7FFA200AD00
(1756900804.775013) can0 201#0C6201008E00FDFF
(1756900804.777014) can0 400#0134031603170359
(1756900804.782003) can0 100#1E4803E86084996C
(1756900804.785006) can0 200#62026219625B625C
(1756900804.789020) can0 101#06000000FFFF7000
(1756900804.791021) can0 300#3AFF4FFF2A000100
(1756900804.795023) can0 201#1E62FEFF8900F5FF
(1756900804.802014) can0 100#1E4B03E86084996E
(1756900804.805020) can0 200#622B621B6278628C
(1756900804.809007) can0 101#00000200FDFF7000
(1756900804.811011) can0 300#4BFF65FF22000C00
(1756900804.815010) can0 201#216202008C00E9FF
(1756900804.822008) can0 100#1E4E03E86084996D
(1756900804.823007) can0 500#075D0CD71200007B
(1756900804.825023) can0 200#621C623562806282
(1756900804.827007) can0 400#023F032103210359
(1756900804.829010) can0 101#00000200FAFF7000
(1756900804.831006) can0 300#A7FFA1FF73004D00
(1756900804.835008) can0 201#326200008900FDFF
(1756900804.842002) can0 100#1E5103E86084996D
(1756900804.845004) can0 200#623262386294629E
(1756900804.849011) can0 101#0000000001007000
(1756900804.851011) can0 300#D7FFAFFF89008300
(1756900804.855016) can0 201#3862FFFF8600FEFF
(1756900804.862023) can0 100#1E5403E86084996D
(1756900804.865008) can0 200#624C623162916294
(1756900804.869007) can0 101#0000030001007000
(1756900804.871002) can0 300#E1FFD9FF87009200
(1756900804.875018) can0 201#4162F8FF85000B00
(1756900804.877007) can0 400#0346032A03290359
(1756900804.882024) can0 100#1E5703E86084996D
(1756900804.885017) can0 200#6247624562B3629B
(1756900804.889017) can0 101#00000000FCFF7000
(1756900804.891001) can0 300#2FFF5DFF28000400
(1756900804.895025) can0 201#4962F7FF86000E00
(1756900804.902019) can0 100#1E5A03E86084996C
(1756900804.905013) can0 200#624A626662B562A6
(1756900804.909005) can0 101#0400050004007000
(1756900804.911001) can0 300#3AFF36FFEBFFF9FF
(1756900804.915019) can0 201#5062FBFF8600FFFF
(1756900804.922023) can0 100#1E5C03E86084996C
(1756900804.923002) can0 500#07A20C3B1300007A
(1756900804.925023) can0 200#625D625162B262BD
(1756900804.927022) can0 400#002A030E030D0358
(1756900804.929008) can0 101#00000200FFFF7000
(1756900804.931006) can0 300#FCFFEEFF9E00B600
(1756900804.935001) can0 201#5D62FBFF8800FDFF
(1756900804.942021) can0 100#1E5F03E86084996C
(1756900804.945017) can0 200#6265625B62B862BF
(1756900804.949007) can0 101#00000000FDFF7000
(1756900804.951011) can0 300#EEFFCBFF92008E00
(1756900804.955023) can0 201#6762040088000200
(1756900804.962010) can0 100#1E6203E86084996D
(1756900804.965022) can0 200#6263627062C262C1
(1756900804.969003) can0 101#00000100FBFF7000
(1756900804.971010) can0 300#6BFF56FFFBFF1D00
(1756900804.975019) can0 201#6D62FEFF81000600
(1756900804.977009) can0 400#0134031503150359
(1756900804.982007) can0 100#1E6503E86084996D
(1756900804.985021) can0 200#6263626B62CA62DB
(1756900804.989017) can0 101#0000000002007000
(1756900804.991016) can0 300#62FF6DFF23001300
(1756900804.995018) can0 201#7562FFFF8E000800
(1756900805.002005) can0 100#1E6803E86084996B
(1756900805.005016) can0 200#627F626D62D662C6
(1756900805.009017) can0 101#0000000003007000
(1756900805.011017) can0 300#88FF7AFF44004B00
(1756900805.015002) can0 201#7C62FAFF89000F00
(1756900805.022005) can0 100#1E6B03E86084996C
(1756900805.023013) can0 500#07E80C9F1300007A
(1756900805.025003) can0 200#6290628062E662E7
(1756900805.027022) can0 400#023E032003210359
(1756900805.029008) can0 101#01000000FFFF7000
(1756900805.031017) can0 300#AEFFCAFF8F00A500
(1756900805.035021) can0 201#816201007E00EFFF
(1756900805.042022) can0 100#1E6E03E86084996C
(1756900805.045002) can0 200#6294629062E762EB
(1756900805.049023) can0 101#0400030006007000
(1756900805.051013) can0 300#F5FFD4FF93009E00
(1756900805.055004) can0 201#996201008900FAFF
(1756900805.062019) can0 100#1E7103E86084996C
(1756900805.065017) can0 200#6295629862E262EE
(1756900805.069002) can0 101#01000000FEFF7000
(1756900805.071013) can0 300#3CFF63FF2C000300
(1756900805.075002) can0 201#9B6204008800FBFF
(1756900805.077017) can0 400#03470329032A0359
(1756900805.082015) can0 100#1E7403E86084996D
(1756900805.085013) can0 200#62A462946300630C
(1756900805.089004) can0 101#0400010000007000
(1756900805.091005) can0 300#36FF36FFD5FFECFF
(1756900805.095003) can0 201#AB62040087000200
(1756900805.102019) can0 100#1E7603E86084996C
(1756900805.105021) can0 200#62AC62A3630A6302
(1756900805.109014) can0 101#00000000FEFF7000
(1756900805.111002) can0 300#0100F3FFA900B300
(1756900805.115021) can0 201#AE62F9FF8600F6FF
(1756900805.122013) can0 100#1E7903E86084996E
(1756900805.123002) can0 500#072F0D031400007A
(1756900805.125010) can0 200#62AD62B662FD631D
(1756900805.127021) can0 400#002A030D030E0358
(1756900805.129000) can0 101#0000000002007000
(1756900805.131009) can0 300#F2FFDFFF9F006F00
(1756900805.135005) can0 201#B862FFFF8400EFFF
(1756900805.142025) can0 100#1E7C03E86084996E
(1756900805.145002) can0 200#62C662B8631C6329
(1756900805.149005) can0 101#00000000FEFF7000
(1756900805.151022) can0 300#74FF85FF20002400
(1756900805.155006) can0 201#C362FEFF7C000000
(1756900805.162013) can0 100#1E7F03E86084996D
(1756900805.165017) can0 200#62AE62D863266311
(1756900805.169001) can0 101#02000000FEFF7000
(1756900805.171006) can0 300#82FF86FF0E002400
(1756900805.175010) can0 201#C762FFFF7E000C00
(1756900805.177011) can0 400#0133031503150359
(1756900805.182019) can0 100#1E8203E86084996D
(1756900805.185021) can0 200#62DA62BC63246321
(1756900805.189022) can0 101#00000000FEFF7000
(1756900805.191000) can0 300#88FF8FFF40002B00
(1756900805.195001) can0 201#D762010082000300
(1756900805.202020) can0 100#1E8503E86084996C
(1756900805.205015) can0 200#62C662D7632D6347
(1756900805.209008) can0 101#00000000FEFF7000
(1756900805.211002) can0 300#D4FFD8FF88008700
(1756900805.215004) can0 201#DE62FFFF7F00ECFF
(1756900805.222008) can0 100#1E8703E86084996D
(1756900805.223016) can0 500#07750D671400007A
(1756900805.225008) can0 200#62ED62E7634B6355
(1756900805.227021) can0 400#023D032103200359
(1756900805.229008) can0 101#02000000FDFF7000
(1756900805.231020) can0 300#03000300A300BC00
(1756900805.235012) can0 201#DF62FEFF8200F7FF
(1756900805.242001) can0 100#1E8A03E86084996F
(1756900805.245017) can0 200#62FE62F563276340
(1756900805.249003) can0 101#02000400FCFF7000
(1756900805.251004) can0 300#3CFF2EFFF9FFF9FF
(1756900805.255007) can0 201#EF6204007B000000
(1756900805.262013) can0 100#1E8D03E86084996C
(1756900805.265024) can0 200#62F162E863526362
(1756900805.269011) can0 101#0200000000007000
(1756900805.271001) can0 300#4DFF54FFF6FF0600
(1756900805.275012) can0 201#F762020073000C00
(1756900805.277005) can0 400#0347032803280359
(1756900805.282013) can0 100#1E9003E86084996B
(1756900805.285021) can0 200#62E662E563396361
(1756900805.289000) can0 101#01000100FEFF7000
(1756900805.291016) can0 300#F6FFE4FF9A00A100
(1756900805.295005) can0 201#FE62FEFF7F00FFFF
(1756900805.302022) can0 100#1E9303E86084996E
(1756900805.305019) can0 200#630962ED636D6352
(1756900805.309020) can0 101#02000000FCFF7000
(1756900805.311002) can0 300#EAFFD9FF78008A00
(1756900805.315024) can0 201#086300007F000000
(1756900805.322008) can0 100#1E9503E86084996D
(1756900805.323022) can0 500#07BB0DCB1400007A
(1756900805.325004) can0 200#6311630D636D6364
(1756900805.327010) can0 400#002A030C030C0358
(1756900805.329015) can0 101#0000000003007000
(1756900805.331024) can0 300#7CFFA6FF3B003000
(1756900805.335024) can0 201#1263FDFF7A000F00
(1756900805.342002) can0 100#1E9803E86084996D
(1756900805.345007) can0 200#631B631D63826373
(1756900805.349025) can0 101#00000200FEFF7000
(1756900805.351002) can0 300#7DFF87FF2B001B00
(1756900805.355011) can0 201#1A63FFFF7E00FEFF
(1756900805.362019) can0 100#1E9B03E86084996E
(1756900805.365012) can0 200#632C632B6377636A
(1756900805.369001) can0 101#0100040000007000
(1756900805.371020) can0 300#6EFF71FF0D000000
(1756900805.375022) can0 201#256303007A000200
(1756900805.377010) can0 400#0131031403150359
(1756900805.382011) can0 100#1E9D03E86084996F
(1756900805.385008) can0 200#632B632763806391
(1756900805.389020) can0 101#00000200FDFF7000
(1756900805.391008) can0 300#EDFFCEFF91008300
(1756900805.395025) can0 201#326307007700EFFF
(1756900805.402017) can0 100#1EA003E86084996F
(1756900805.405007) can0 200#63316328638663A4
(1756900805.409001) can0 101#0000000003007000
(1756900805.411014) can0 300#1600F4FFB8009400
(1756900805.415007) can0 201#326302007D00F3FF
(1756900805.422000) can0 100#1EA303E86084996B
(1756900805.423023) can0 500#07020E2F1500007A
(1756900805.425000) can0 200#6340633463966394
(1756900805.427019) can0 400#023D031F031F0359
(1756900805.429008) can0 101#01000000FCFF7000
(1756900805.431013) can0 300#62FF45FFECFFE2FF
(1756900805.435015) can0 201#3F6300007D00FFFF
(1756900805.442009) can0 100#1EA603E86084996E
(1756900805.445010) can0 200#6344634D639D6395
(1756900805.449018) can0 101#00000000FDFF7000
(1756900805.451023) can0 300#5AFF68FFF1FF1000
(1756900805.455013) can0 201#486304008800F9FF
(1756900805.462013) can0 100#1EA803E86084996E
(1756900805.465000) can0 200#6349636363976393
(1756900805.469014) can0 101#0000000000007000
(1756900805.471016) can0 300#F1FFEAFF84008100
(1756900805.475010) can0 201#4F6301007A00FFFF
(1756900805.477000) can0 400#0345032603280359
(1756900805.482017) can0 100#1EAB03E86084996D
(1756900805.485008) can0 200#6357634763BC63AD
(1756900805.489008) can0 101#0200000006007000
(1756900805.491011) can0 300#E1FFB9FF7F006C00
(1756900805.495011) can0 201#5363FBFF7E00EFFF
(1756900805.502019) can0 100#1EAE03E86084996F
(1756900805.505007) can0 200#6364634863B563A1
(1756900805.509004) can0 101#01000000FBFF7000
(1756900805.511020) can0 300#A4FFA9FF4A005100
(1756900805.515010) can0 201#5A63010079000900
(1756900805.522009) can0 100#1EB003E86084996E
(1756900805.523004) can0 500#07480E931500007A
(1756900805.525003) can0 200#6366636663D063B2
(1756900805.527020) can0 400#002A030C030C0358
(1756900805.529016) can0 101#0000020000007000
(1756900805.531015) can0 300#7DFF7CFF2E000F00
(1756900805.535024) can0 201#6663FBFF71000300
(1756900805.542012) can0 100#1EB303E86084996E
(1756900805.545005) can0 200#6364637F63C663B8
(1756900805.549007) can0 101#0000000003007000
(1756900805.551002) can0 300#44FF49FFF6FFE5FF
(1756900805.555016) can0 201#7063FDFF7A000600
(1756900805.562005) can0 100#1EB603E86084996E
(1756900805.565001) can0 200#6377637763CF63C0
(1756900805.569018) can0 101#0000010004007000
(1756900805.571023) can0 300#DAFFFFFFA200A800
(1756900805.575010) can0 201#776306007400FDFF
(1756900805.577008) can0 400#0132031403130359
(1756900805.582025) can0 100#1EB803E86084996F
(1756900805.585008) can0 200#637E639C63DA63CD
(1756900805.589017) can0 101#00000100FCFF7000
(1756900805.591010) can0 300#E4FFFAFF9500A600
(1756900805.595011) can0 201#8463FFFF7700F8FF
(1756900805.602016) can0 100#1EBB03E86084996D
(1756900805.605016) can0 200#6381638B63DA63F5
(1756900805.609014) can0 101#02000100FEFF7000
(1756900805.611012) can0 300#76FF46FF0400EFFF
(1756900805.615021) can0 201#9263030078000E00
(1756900805.622011) can0 100#1EBD03E86084996F
(1756900805.623023) can0 500#078F0EF71500007A
(1756900805.625014) can0 200#63B4638C63E563E2
(1756900805.627008) can0 400#023E031F031E0359
(1756900805.629022) can0 101#04000000FDFF7000
(1756900805.631024) can0 300#57FF5AFF16001900
(1756900805.635010) can0 201#8D63060077000300
(1756900805.642015) can0 100#1EC003E86084996E
(1756900805.645017) can0 200#639A639B63E563F6
(1756900805.649019) can0 101#0000030003007000
(1756900805.651021) can0 300#BEFFBEFF71008000
(1756900805.655005) can0 201#A363FCFF7C000C00
(1756900805.662005) can0 100#1EC303E86084996F
(1756900805.665002) can0 200#6394638563EF63F7
(1756900805.669023) can0 101#0000000000007000
(1756900805.671016) can0 300#CCFFD6FF7E005600
(1756900805.675018) can0 201#A563FAFF71000500
(1756900805.677023) can0 400#0344032703260359
(1756900805.682011) can0 100#1EC503E86084996E
(1756900805.685004) can0 200#63A863B763F863F9
(1756900805.689003) can0 101#0100040003007000
(1756900805.691012) can0 300#B0FFDEFF72006100
(1756900805.695022) can0 201#AA6303007800F3FF
(1756900805.702019) can0 100#1EC803E86084996E
(1756900805.705005) can0 200#63B063BF640763FB
(1756900805.709022) can0 101#00000000FAFF7000
(1756900805.711003) can0 300#5DFF47FFF0FF1400
(1756900805.715012) can0 201#B763FDFF7600FDFF
(1756900805.722003) can0 100#1ECA03E86084996E
(1756900805.723006) can0 500#07D60E5B1600007A
(1756900805.725001) can0 200#63C363CA640C641C
(1756900805.727005) can0 400#002A030C030C0358
(1756900805.729013) can0 101#0000030000007000
(1756900805.731001) can0 300#36FF40FFFBFFF6FF
(1756900805.735005) can0 201#BF6300007C00F8FF
(1756900805.742007) can0 100#1ECD03E860849970
(1756900805.745006) can0 200#63C363BB641B641F
(1756900805.749016) can0 101#0100010003007000
(1756900805.751016) can0 300#E4FF0A009600B300
(1756900805.755001) can0 201#BE63FDFF7700F9FF
(1756900805.762004) can0 100#1ED003E86084996D
(1756900805.765007) can0 200#63DF63BA64206413
(1756900805.769010) can0 101#0000020002007000
(1756900805.771004) can0 300#EDFF1000A600A800
(1756900805.775000) can0 201#C963FFFF7400F9FF
(1756900805.777003) can0 400#0131031303130359
(1756900805.782006) can0 100#1ED203E860849970
(1756900805.785001) can0 200#63D463B4642D6413
(1756900805.789003) can0 101#0100000002007000
(1756900805.791010) can0 300#2AFF4FFFF9FFEEFF
(1756900805.795007) can0 201#D763FFFF79000200
(1756900805.802014) can0 100#1ED503E86084996F
(1756900805.805010) can0 200#63CD63DA642E6438
(1756900805.809022) can0 101#0000000002007000
(1756900805.811024) can0 300#84FF86FF19002800
(1756900805.815005) can0 201#E26305007300F8FF
(1756900805.822019) can0 100#1ED703E86084996D
(1756900805.823021) can0 500#071D0FBF1600007A
(1756900805.825008) can0 200#63F863D56441643F
(1756900805.827013) can0 400#023D031E031E0359
(1756900805.829017) can0 101#00000000FEFF7000
(1756900805.831018) can0 300#C5FFB0FF48004A00
(1756900805.835000) can0 201#E363F8FF7600F8FF
(1756900805.842004) can0 100#1EDA03E86084996D
(1756900805.845009) can0 200#63F363E264426438
(1756900805.849015) can0 101#0100010004007000
(1756900805.851014) can0 300#B8FFD4FF8B006D00
(1756900805.855015) can0 201#F963FFFF74001500
(1756900805.862006) can0 100#1EDC03E86084996D
(1756900805.865010) can0 200#63F663F964596449
(1756900805.869002) can0 101#0000050006007000
(1756900805.871009) can0 300#CCFF040079008900
(1756900805.875008) can0 201#F263FAFF7C00F9FF
(1756900805.877005) can0 400#0343032503260359
(1756900805.882023) can0 100#1EDF03E86084996D
(1756900805.885002) can0 200#63E363F8644A644E
(1756900805.889005) can0 101#0000000001007000
(1756900805.891017) can0 300#85FF45FFE6FF1000
(1756900805.895024) can0 201#F86302007300FCFF
(1756900805.902023) can0 100#1EE103E86084996D
(1756900805.905021) can0 200#642363FA644D6446
(1756900805.909001) can0 101#00000000FEFF7000
(1756900805.911015) can0 300#2DFF4AFFE1FFE5FF
(1756900805.915005) can0 201#0564FCFF73000600
(1756900805.922019) can0 100#1EE403E86084996E
(1756900805.923023) can0 500#07640F231700007A
(1756900805.925014) can0 200#641C641164696460
(1756900805.927003) can0 400#002A030B030C0358
(1756900805.929023) can0 101#0000000002007000
(1756900805.931020) can0 300#0C000F0079009300
(1756900805.935008) can0 201#0E64FFFF6F00F8FF
(1756900805.942016) can0 100#1EE603E86084996F
(1756900805.945003) can0 200#6410641264556462
(1756900805.949014) can0 101#00000100FAFF7000
(1756900805.951020) can0 300#1300D6FFA2007D00
(1756900805.955005) can0 201#1464FAFF7200FBFF
(1756900805.962015) can0 100#1EE903E86084996F
(1756900805.965018) can0 200#64246431646A647C
(1756900805.969018) can0 101#00000300FDFF7000
(1756900805.971014) can0 300#6BFF72FFEAFFF4FF
(1756900805.975010) can0 201#256401006F000100
(1756900805.977008) can0 400#0130031303120359
(1756900805.982020) can0 100#1EEB03E86084996F
(1756900805.985011) can0 200#6431643264676475
(1756900805.989024) can0 101#0000000001007000
(1756900805.991006) can0 300#67FF70FF1C000B00
(1756900805.995023) can0 201#2464020070000100
(1756900806.002021) can0 100#1EEE03E86084996F
(1756900806.005004) can0 200#6437642B647F6482
(1756900806.009021) can0 101#00000200FDFF7000
(1756900806.011020) can0 300#9AFFA0FF3D004000
(1756900806.015023) can0 201#3164FCFF75000100
(1756900806.022008) can0 100#1EF003E86084996E
(1756900806.023006) can0 500#07AB0F871700007A
(1756900806.025011) can0 200#643C64456484647D
(1756900806.027014) can0 400#023B031E031E0359
(1756900806.029019) can0 101#0200010001007000
(1756900806.031006) can0 300#DDFFDAFF72007900
(1756900806.035018) can0 201#336401006C00F8FF
(1756900806.042012) can0 100#1EF303E86084996E
(1756900806.045006) can0 200#6439642A64846495
(1756900806.049013) can0 101#0000000000007000
(1756900806.051015) can0 300#0A00030097008900
(1756900806.055015) can0 201#406403007400F4FF
(1756900806.062004) can0 100#1EF503E86084996E
(1756900806.065004) can0 200#6450642B6493649C
(1756900806.069001) can0 101#0000010004007000
(1756900806.071017) can0 300#46FF67FFEAFFE1FF
(1756900806.075021) can0 201#4B6408007200F7FF
(1756900806.077009) can0 400#0343032403240359
(1756900806.082006) can0 100#1EF703E860849970
(1756900806.085023) can0 200#644E644964A364A8
(1756900806.089019) can0 101#00000300FCFF7000
(1756900806.091016) can0 300#4EFF44FFBBFFEFFF
(1756900806.095008) can0 201#5864FFFF6C000B00
(1756900806.102012) can0 100#1EFA03E86084996E
(1756900806.105023) can0 200#6456644A64A7649D
(1756900806.109024) can0 101#0000000005007000
(1756900806.111001) can0 300#0500FAFF8E009400
(1756900806.115017) can0 201#616402006B000900
(1756900806.122024) can0 100#1EFC03E86084996E
(1756900806.123019) can0 500#07F20FEB1700007A
(1756900806.125016) can0 200#646D645164AB649F
(1756900806.127020) can0 400#002A030B030B0358
(1756900806.129018) can0 101#0200010001007000
(1756900806.131018) can0 300#FAFFEFFF7D009500
(1756900806.135018) can0 201#5E6406006C00F8FF
(1756900806.142018) can0 100#1EFF03E860849970
(1756900806.145006) can0 200#645A645664AE64B1
(1756900806.149011) can0 101#0000000003007000
(1756900806.151003) can0 300#91FF83FFFDFF0000
(1756900806.155014) can0 201#6A64FDFF72000800
(1756900806.162007) can0 100#1F0103E86084996E
(1756900806.165017) can0 200#6476647764B464BE
(1756900806.169022) can0 101#0000000000007000
(1756900806.171002) can0 300#92FF80FF0F001800
(1756900806.175018) can0 201#7064FFFF6900F4FF
(1756900806.177018) can0 400#0130031203120359
(1756900806.182014) can0 100#1F0303E86084996F
(1756900806.185013) can0 200#6483647664B464CA
(1756900806.189013) can0 101#00000100FFFF7000
(1756900806.191022) can0 300#83FF8BFF14002100
(1756900806.195014) can0 201#7664FEFF72000F00
(1756900806.202011) can0 100#1F0603E86084996E
(1756900806.205008) can0 200#6465647064CE64C3
(1756900806.209010) can0 101#00000000FEFF7000
(1756900806.211009) can0 300#DCFFDAFF77008100
(1756900806.215007) can0 201#7864FCFF6A000500
(1756900806.222018) can0 100#1F0803E86084996D
(1756900806.223017) can0 500#073A104F1800007A
(1756900806.225008) can0 200#647B646764CE64C4
(1756900806.227001) can0 400#023B031D031D0359
(1756900806.229024) can0 101#01000000FFFF7000
(1756900806.231008) can0 300#FBFFFBFFA0009100
(1756900806.235022) can0 201#8A6404006E001000
(1756900806.242016) can0 100#1F0B03E86084996E
(1756900806.245009) can0 200#647E648D64F264E1
(1756900806.249015) can0 101#03000100FAFF7000
(1756900806.251008) can0 300#53FF3AFFF3FFE9FF
(1756900806.255006) can0 201#8B6405006D00F6FF
(1756900806.262006) can0 100#1F0D03E86084996E
(1756900806.265016) can0 200#647C648D64EC64DB
(1756900806.269005) can0 101#00000000FDFF7000
(1756900806.271000) can0 300#45FF6CFFDDFFE1FF
(1756900806.275002) can0 201#8E64FDFF6E000B00
(1756900806.277020) can0 400#0342032503240359
(1756900806.282017) can0 100#1F0F03E86084996F
(1756900806.285000) can0 200#6497649964EE64F3
(1756900806.289007) can0 101#0100000001007000
(1756900806.291011) can0 300#0B00DFFF90006600
(1756900806.295001) can0 201#9F6401006900FAFF
(1756900806.302022) can0 100#1F1203E86084996F
(1756900806.305010) can0 200#6494649964F064FF
(1756900806.309004) can0 101#00000200FFFF7000
(1756900806.311002) can0 300#DFFFD1FF62008900
(1756900806.315011) can0 201#A464FFFF6C000A00
(1756900806.322013) can0 100#1F1403E86084996F
(1756900806.323017) can0 500#078110B31800007A
(1756900806.325008) can0 200#64B564AB64F664F9
(1756900806.327008) can0 400#0029030C030B0358
(1756900806.329008) can0 101#0200010005007000
(1756900806.331019) can0 300#ADFFB1FF48002C00
(1756900806.335010) can0 201#A864030069000400
(1756900806.342009) can0 100#1F1603E86084996E
(1756900806.345019) can0 200#64BD64AF64F564F7
(1756900806.349004) can0 101#00000000FEFF7000
(1756900806.351001) can0 300#57FF69FF08000D00
(1756900806.355006) can0 201#B264090065000800
(1756900806.362013) can0 100#1F1903E860849971
(1756900806.365005) can0 200#64A664B6650664FA
(1756900806.369021) can0 101#00000000FEFF7000
(1756900806.371005) can0 300#84FF69FF0C000200
(1756900806.375004) can0 201#BC64020069000300
(1756900806.377004) can0 400#0130031203110359
(1756900806.382016) can0 100#1F1B03E860849970
(1756900806.385004) can0 200#64C964BF651B6513
(1756900806.389006) can0 101#00000100FEFF7000
(1756900806.391009) can0 300#ECFFFCFF7D007400
(1756900806.395013) can0 201#BF64FBFF6F000F00
(1756900806.402010) can0 100#1F1D03E860849970
(1756900806.405006) can0 200#64BE64BD6521650E
(1756900806.409009) can0 101#01000000FCFF7000
(1756900806.411014) can0 300#0C0010009B009B00
(1756900806.415002) can0 201#CA64FEFF6A00FFFF
(1756900806.422012) can0 100#1F1F03E86084996F
(1756900806.423009) can0 500#07C910171900007A
(1756900806.425010) can0 200#64AF64C16514651B
(1756900806.427018) can0 400#023B031D031D0359
(1756900806.429018) can0 101#0100020001007000
(1756900806.431003) can0 300#35FF55FFF2FFC5FF
(1756900806.435016) can0 201#D66403006B00F7FF
(1756900806.442024) can0 100#1F2203E860849970
(1756900806.445007) can0 200#64D564ED650A6505
(1756900806.449004) can0 101#02000000FCFF7000
(1756900806.451007) can0 300#69FF4FFFF0FFDCFF
(1756900806.455016) can0 201#D664FFFF6A000600
(1756900806.462000) can0 100#1F2403E86084996F
(1756900806.465015) can0 200#64C064DA6525652C
(1756900806.469011) can0 101#0000000001007000
(1756900806.471008) can0 300#EBFFD3FF73006D00
(1756900806.475021) can0 201#E264FFFF6600EFFF
(1756900806.477012) can0 400#0341032303240359
(1756900806.482002) can0 100#1F2603E86084996E
(1756900806.485019) can0 200#64D464E865236529
(1756900806.489007) can0 101#0400040001007000
(1756900806.491000) can0 300#C6FFD5FF73006900
(1756900806.495015) can0 201#DF64000065000400
(1756900806.502014) can0 100#1F2903E86084996E
(1756900806.505011) can0 200#64DE64F8652D6537
(1756900806.509003) can0 101#0000010002007000
(1756900806.511018) can0 300#B9FFD5FF4E005900
(1756900806.515016) can0 201#F064FEFF6600FBFF
(1756900806.522011) can0 100#1F2703A76084996E
(1756900806.523004) can0 500#0711117B1900007A
(1756900806.525007) can0 200#6353633F64DA64B2
(1756900806.527015) can0 400#0029030A030B0358
(1756900806.529019) can0 101#1D01B200FEFF7000
(1756900806.531003) can0 300#2804400493FC88FC
(1756900806.535019) can0 201#A96407008AFA0E00
(1756900806.542018) can0 100#1F08029C6084996F
(1756900806.545007) can0 200#62FE62DF64646465
(1756900806.549006) can0 101#65028101FEFF7000
(1756900806.551006) can0 300#FE0309045DFC50FC
(1756900806.555012) can0 201#3364FFFF85FA0900
(1756900806.562006) can0 100#1EEA01DD60849970
(1756900806.565013) can0 200#627E628864086416
(1756900806.569023) can0 101#0A03E30101007000
(1756900806.571023) can0 300#B004A80411FD0EFD
(1756900806.575012) can0 201#D863F6FF8BFAF4FF
(1756900806.577003) can0 400#0131031203130359
(1756900806.582014) can0 100#1ECB01556084996D
(1756900806.585012) can0 200#6244621D63A163A4
(1756900806.589008) can0 101#63031702FCFF7000
(1756900806.591002) can0 300#A604C8040BFD0EFD
(1756900806.595008) can0 201#7B63F9FF86FAF9FF
(1756900806.602010) can0 100#1EAD00F46084996E
(1756900806.605009) can0 200#61C561D96350634F
(1756900806.609013) can0 101#89033002FCFF7000
(1756900806.611007) can0 300#2704FD036EFC66FC
(1756900806.615014) can0 201#1763080087FAFBFF
(1756900806.622013) can0 100#1E8E00AE6084996D
(1756900806.623018) can0 500#075811DF1900007A
(1756900806.625020) can0 200#614D617162F462DB
(1756900806.627023) can0 400#023A031C031C0359
(1756900806.629003) can0 101#A2034002FDFF7000
(1756900806.631013) can0 300#2B040D0479FC85FC
(1756900806.635023) can0 201#B262FFFF8AFA0200
(1756900806.642013) can0 100#1E70007C6084996D
(1756900806.645017) can0 200#611060FC6277628A
(1756900806.649024) can0 101#AE034502FBFF7000
(1756900806.651022) can0 300#98048B04F6FC03FD
(1756900806.655018) can0 201#496200008CFAF3FF
(1756900806.662002) can0 100#1E5100596084996D
(1756900806.665000) can0 200#608E608F6216621D
(1756900806.669003) can0 101#B0034902FFFF7000
(1756900806.671019) can0 300#78049404DCFCE7FC
(1756900806.675004) can0 201#E76101008AFA0000
(1756900806.677021) can0 400#0340032203220359
(1756900806.682013) can0 100#1E3200406084996B
(1756900806.685001) can0 200#602C603761C161B1
(1756900806.689005) can0 101#B5034902FEFF7000
(1756900806.691011) can0 300#8904820405FDEFFC
(1756900806.695022) can0 201#8161FAFF87FAF3FF
(1756900806.702010) can0 100#1E14002D6084996C
(1756900806.705008) can0 200#5FEE5FDD6154614D
(1756900806.709024) can0 101#B1034E0202007000
(1756900806.711017) can0 300#310417046EFC7DFC
(1756900806.715001) can0 201#246102008FFA0600
(1756900806.722010) can0 100#1DF500206084996B
(1756900806.723021) can0 500#079D11431A00007A
(1756900806.725019) can0 200#5F895F8260F960FF
(1756900806.727021) can0 400#002E0310030F0358
(1756900806.729019) can0 101#B6034E02FBFF7000
(1756900806.731023) can0 300#F603110469FC65FC
(1756900806.735023) can0 201#C760030088FAF3FF
(1756900806.742007) can0 100#1DD700176084996B
(1756900806.745016) can0 200#5F1A5F2E609760A8
(1756900806.749019) can0 101#B7034C02FBFF7000
(1756900806.751024) can0 300#B504AF0402FDF5FC
(1756900806.755003) can0 201#6660030081FA1000
(1756900806.762010) can0 100#1DB800116084996B
(1756900806.765023) can0 200#5ECE5EA860306024
(1756900806.769005) can0 101#B503510205007000
(1756900806.771008) can0 300#C804C30419FD0FFD
(1756900806.775008) can0 201#FA5F00008DFAFCFF
(1756900806.777018) can0 400#0135031503160359
(1756900806.782007) can0 100#1D9A000C6084996A
(1756900806.785016) can0 200#5E625E6E5FC65FC7
(1756900806.789012) can0 101#B6034A02FAFF7000
(1756900806.791018) can0 300#03040E0487FC58FC
(1756900806.795022) can0 201#925F000088FA0500
(1756900806.802017) can0 100#1D7B00086084996C
(1756900806.805002) can0 200#5E045DEB5F775F7F
(1756900806.809017) can0 101#B7035202F9FF7000
(1756900806.811023) can0 300#2E0435048BFC93FC
(1756900806.815010) can0 201#3D5F000089FAFEFF
(1756900806.822012) can0 100#1D5D000660849969
(1756900806.823013) can0 500#07E211A71A00007A
(1756900806.825011) can0 200#5D9A5D835F015F0B
(1756900806.827019) can0 400#023A031C031C0359
(1756900806.829011) can0 101#B4034E0203007000
(1756900806.831017) can0 300#50044604CAFCC2FC
(1756900806.835006) can0 201#CC5E040087FAFDFF
(1756900806.842003) can0 100#1D3E000460849969
(1756900806.845022) can0 200#5D2B5D3A5E995EAB
(1756900806.849007) can0 101#B7034F0201007000
(1756900806.851007) can0 300#80048804D5FCE6FC
(1756900806.855016) can0 201#6C5EF8FF8BFA0F00
(1756900806.862013) can0 100#1D2000036084996A
(1756900806.865000) can0 200#5CD25CCB5E4C5E25
(1756900806.869001) can0 101#B803510209007000
(1756900806.871011) can0 300#8E049704FDFCD4FC
(1756900806.875021) can0 201#155E000082FA0700
(1756900806.877006) can0 400#0340032203200359
(1756900806.882006) can0 100#1D0100026084996A
(1756900806.885010) can0 200#5C7B5C695DCE5DE5
(1756900806.889020) can0 101#B8034C0200007000
(1756900806.891024) can0 300#18041D0485FC85FC
(1756900806.895009) can0 201#B25D010084FA0700
(1756900806.902003) can0 100#1CE3000260849968
(1756900806.905014) can0 200#5C0E5C1D5D8F5D7A
(1756900806.909011) can0 101#B7034E0205007000
(1756900806.911008) can0 300#1304FB0371FC64FC
(1756900806.915021) can0 201#515D00008AFA0300
(1756900806.922017) can0 100#1CC4000160849968
(1756900806.923016) can0 500#0725120B1B00007A
(1756900806.925015) can0 200#5BBC5BAA5D085D0A
(1756900806.927024) can0 400#0031031303130359
(1756900806.929021) can0 101#B4035102FEFF7000
(1756900806.931023) can0 300#A004C50425FD0AFD
(1756900806.935010) can0 201#DC5CFAFF86FAF3FF
(1756900806.942004) can0 100#1CA6000160849966
(1756900806.945018) can0 200#5B575B3D5CA75CB7
(1756900806.949024) can0 101#B5034E0200007000
(1756900806.951025) can0 300#C7049F0411FDFDFC
(1756900806.955008) can0 201#815C010083FA0300
(1756900806.962009) can0 100#1C87000160849967
(1756900806.965021) can0 200#5ADC5AE55C525C4E
(1756900806.969012) can0 101#B3034D02FFFF7000
(1756900806.971020) can0 300#2B04200479FC7EFC
(1756900806.975019) can0 201#255C02008AFA0A00
(1756900806.977018) can0 400#01370319031A0359
(1756900806.982012) can0 100#1C69000060849968
(1756900806.985000) can0 200#5A8C5A995BEC5BF7
(1756900806.989016) can0 101#B5034E02FEFF7000
(1756900806.991003) can0 300#30042D049FFC9FFC
(1756900806.995024) can0 201#BD5BFEFF83FA0F00
(1756900807.002020) can0 100#1C4A000060849967
(1756900807.005013) can0 200#5A2A5A295B8D5B85
(1756900807.009018) can0 101#B703490200007000
(1756900807.011015) can0 300#6104430496FC98FC
(1756900807.015009) can0 201#555B020088FAF6FF
(1756900807.022021) can0 100#1C2B000060849965
(1756900807.023012) can0 500#0766126F1B00007A
(1756900807.025012) can0 200#59CB59CE5B295B1F
(1756900807.027020) can0 400#0239031A031B0359
(1756900807.029013) can0 101#B9034E02FFFF7000
(1756900807.031014) can0 300#99047A04F7FCFFFC
(1756900807.035010) can0 201#FD5AFDFF87FA0200
(1756900807.042022) can0 100#1C0D000060849967
(1756900807.045013) can0 200#596859815ACC5AC7
(1756900807.049004) can0 101#B7034D0200007000
(1756900807.051024) can0 300#A8049E0415FD0EFD
(1756900807.055025) can0 201#8F5AFEFF8BFA0D00
(1756900807.062008) can0 100#1BEE000060849966
(1756900807.065008) can0 200#590258FD5A665A72
(1756900807.069003) can0 101#B9034E02FCFF7000
(1756900807.071011) can0 300#2B04210472FC86FC
(1756900807.075000) can0 201#335A01008AFAFCFF
(1756900807.077009) can0 400#033E0320031F0359
(1756900807.082002) can0 100#1BD0000060849966
(1756900807.085020) can0 200#58A6589C59FF5A00
(1756900807.089005) can0 101#B7034C0203007000
(1756900807.091012) can0 300#12040B0453FC52FC
(1756900807.095005) can0 201#CE5901008EFAF3FF
(1756900807.102020) can0 100#1BB1000060849964
(1756900807.105024) can0 200#5838584959A759A6
(1756900807.109013) can0 101#B5034E02FEFF7000
(1756900807.111012) can0 300#B904AF04F6FCF5FC
(1756900807.115018) can0 201#7159F6FF84FA1100
(1756900807.122006) can0 100#1B93000060849964
(1756900807.123005) can0 500#07A612D31B00007A
(1756900807.125019) can0 200#57D357C1593A593F
(1756900807.127024) can0 400#0034031603160359
(1756900807.129001) can0 101#B4034C02FEFF7000
(1756900807.131004) can0 300#9B04860403FDE5FC
(1756900807.135015) can0 201#025903008AFAFBFF
(1756900807.142023) can0 100#1B74000060849965
(1756900807.145010) can0 200#577B577E58D258C2
(1756900807.149007) can0 101#B7034A02FBFF7000
(1756900807.151020) can0 300#2B043804A2FCA1FC
(1756900807.155021) can0 201#AC58000089FA0300
(1756900807.162007) can0 100#1B56000060849965
(1756900807.165011) can0 200#57105731586D5869
(1756900807.169002) can0 101#B4034B0204007000
(1756900807.171024) can0 300#3E045304A9FCA1FC
(1756900807.175014) can0 201#3F58FFFF88FAF7FF
(1756900807.177021) can0 400#013B031D031D0359
(1756900807.182009) can0 100#1B37000060849964
(1756900807.185000) can0 200#56B156CA58175817
(1756900807.189003) can0 101#B3034E0200007000
(1756900807.191008) can0 300#3B044804A9FC90FC
(1756900807.195011) can0 201#E557FDFF87FA0400
(1756900807.202012) can0 100#1B19000060849963
(1756900807.205014) can0 200#566B564957A857B5
(1756900807.209007) can0 101#B7034E0203007000
(1756900807.211008) can0 300#99048D04F6FCEFFC
(1756900807.215008) can0 201#8757FCFF89FA0E00
(1756900807.222024) can0 100#1AFA000060849963
(1756900807.223014) can0 500#07E512371C00007A
(1756900807.225016) can0 200#55F855ED574A5743
(1756900807.227012) can0 400#0237031B03190359
(1756900807.229022) can0 101#B703510200007000
(1756900807.231018) can0 300#B704A3042AFD05FD
(1756900807.235004) can0 201#1457F8FF88FAEEFF
(1756900807.242002) can0 100#1ADC000060849963
(1756900807.245021) can0 200#5590559F56D456E6
(1756900807.249001) can0 101#B6034C02FDFF7000
(1756900807.251000) can0 300#3004160458FC82FC
(1756900807.255007) can0 201#B956070085FA0700
(1756900807.262020) can0 100#1ABD000060849965
(1756900807.265015) can0 200#553C552D56895692
(1756900807.269004) can0 101#B6034D02FEFF7000
(1756900807.271008) can0 300#1B0412047BFC66FC
(1756900807.275023) can0 201#5456050084FAF5FF
(1756900807.277020) can0 400#033C031F031F0359
(1756900807.282014) can0 100#1A9F000060849963
(1756900807.285002) can0 200#54D554D0561F562C
(1756900807.289016) can0 101#B4034B0204007000
(1756900807.291010) can0 300#9B04A804FCFCF0FC
(1756900807.295011) can0 201#F455FFFF89FAEEFF
(1756900807.302023) can0 100#1A80000060849961
(1756900807.305001) can0 200#5469546A55C555B7
(1756900807.309013) can0 101#B6035002FFFF7000
(1756900807.311009) can0 300#80049004E6FCF6FC
(1756900807.315003) can0 201#8E55000088FA0A00
(1756900807.322014) can0 100#1A62000060849961
(1756900807.323025) can0 500#0722139B1C00007A
(1756900807.325024) can0 200#542554245546555F
(1756900807.327001) can0 400#0037031A031A0359
(1756900807.329021) can0 101#B3034E02FBFF7000
(1756900807.331013) can0 300#3F045C04B6FC99FC
(1756900807.335004) can0 201#3355070082FA0400
(1756900807.342005) can0 100#1A43000060849962
(1756900807.345009) can0 200#53B153AF550054F3
(1756900807.349021) can0 101#B803490200007000
(1756900807.351005) can0 300#45042F0499FC9CFC
(1756900807.355000) can0 201#C454FDFF80FAF9FF
(1756900807.362019) can0 100#1A24000060849961
(1756900807.365010) can0 200#5345535C54A3549A
(1756900807.369004) can0 101#B5034E0200007000
(1756900807.371012) can0 300#2904260485FC96FC
(1756900807.375009) can0 201#6F54030090FA0A00
(1756900807.377012) can0 400#013E032003210359
(1756900807.382007) can0 100#1A0600006084995F
(1756900807.385001) can0 200#52FA52F3542A542D
(1756900807.389020) can0 101#B5034C0203007000
(1756900807.391021) can0 300#A704A304ECFCFEFC
(1756900807.395015) can0 201#0054FCFF8FFA0F00
(1756900807.402002) can0 100#19E700006084995F
(1756900807.405011) can0 200#529B528D53E353F1
(1756900807.409003) can0 101#B3034D0202007000
(1756900807.411022) can0 300#C704C50409FD13FD
(1756900807.415006) can0 201#A35301008FFA0800
(1756900807.422015) can0 100#19C9000060849960
(1756900807.423013) can0 500#075E13FF1C00007A
(1756900807.425007) can0 200#523B523E536A5367
(1756900807.427011) can0 400#0237031803190359
(1756900807.429024) can0 101#B5034D02FEFF7000
(1756900807.431018) can0 300#1104180483FC5AFC
(1756900807.435017) can0 201#3853050083FAFDFF
(1756900807.442005) can0 100#19AA000060849960
(1756900807.445025) can0 200#51E251CD53105316
(1756900807.449011) can0 101#B8034D0200007000
(1756900807.451014) can0 300#2D040D047FFC77FC
(1756900807.455011) can0 201#D952000088FA0900
(1756900807.462016) can0 100#198C00006084995F
(1756900807.465014) can0 200#516F516752A152A8
(1756900807.469025) can0 101#B5034B02FDFF7000
(1756900807.471024) can0 300#9A049104DDFCD5FC
(1756900807.475008) can0 201#7752FEFF8BFAFDFF
(1756900807.477015) can0 400#033C031F031F0359
(1756900807.482025) can0 100#196D00006084995E
(1756900807.485001) can0 200#511451075243523A
(1756900807.489013) can0 101#B7034B02FDFF7000
(1756900807.491007) can0 300#5E047604D3FCD7FC
(1756900807.495016) can0 201#0A5203008FFA0500
(1756900807.502023) can0 100#194F00006084995C
(1756900807.505006) can0 200#509D50AB51DC51F0
(1756900807.509005) can0 101#B8034D0202007000
(1756900807.511011) can0 300#76048304DFFCC1FC
(1756900807.515008) can0 201#B25105008CFA0D00
(1756900807.522022) can0 100#193000006084995C
(1756900807.523005) can0 500#079913631D00007A
(1756900807.525002) can0 200#504250475172517D
(1756900807.527017) can0 400#003B031D031D0359
(1756900807.529001) can0 101#B5034C0202007000
(1756900807.531025) can0 300#370430049AFCBDFC
(1756900807.535024) can0 201#5051030087FAFDFF
(1756900807.542012) can0 100#191200006084995E
(1756900807.545017) can0 200#4FF04FEF51185111
(1756900807.549013) can0 101#B7034D0200007000
(1756900807.551021) can0 300#12041C0489FC6BFC
(1756900807.555001) can0 201#EA50050092FADFFF
(1756900807.562009) can0 100#18F300006084995D
(1756900807.565008) can0 200#4F774F7450A050C4
(1756900807.569002) can0 101#B5034C0201007000
(1756900807.571007) can0 300#AE04A304E4FCF5FC
(1756900807.575001) can0 201#8E5004008DFA0100
(1756900807.577014) can0 400#0142032403240359
(1756900807.582021) can0 100#18D500006084995F
(1756900807.585023) can0 200#4F204F1B504E505B
(1756900807.589009) can0 101#B3034D0204007000
(1756900807.591005) can0 300#AF048E0407FD0CFD
(1756900807.595013) can0 201#205003008BFA0100
(1756900807.602022) can0 100#18B600006084995D
(1756900807.605004) can0 200#4EA84EC44FDE4FF8
(1756900807.609021) can0 101#B6034D0202007000
(1756900807.611017) can0 300#09041C0467FC75FC
(1756900807.615010) can0 201#C24F040089FAFDFF
(1756900807.622001) can0 100#189800006084995D
(1756900807.623015) can0 500#07D213C71D00007A
(1756900807.625022) can0 200#4E4F4E574FA24F83
(1756900807.627012) can0 400#0236031803190359
(1756900807.629024) can0 101#B5034F0203007000
(1756900807.631022) can0 300#310423048EFC99FC
(1756900807.635002) can0 201#694F030087FA1500
(1756900807.642023) can0 100#187900006084995C
(1756900807.645005) can0 200#4E0C4DF54F2F4F21
(1756900807.649010) can0 101#B9034B0200007000
(1756900807.651009) can0 300#88048104D9FCD0FC
(1756900807.655013) can0 201#FD4E0B0089FAFCFF
(1756900807.662005) can0 100#185B00006084995B
(1756900807.665020) can0 200#4DA54DA34EC24ED3
(1756900807.669004) can0 101#B6034F0201007000
(1756900807.671009) can0 300#7C048B04D2FCC1FC
(1756900807.675017) can0 201#944EF9FF88FA0900
(1756900807.677016) can0 400#033B031D031D0359
(1756900807.682021) can0 100#183C00006084995D
(1756900807.685018) can0 200#4D414D404E714E65
(1756900807.689023) can0 101#B8034E02FCFF7000
(1756900807.691011) can0 300#85047104E5FCD2FC
(1756900807.695009) can0 201#334E000088FA0000
(1756900807.702008) can0 100#181D00006084995C
(1756900807.705015) can0 200#4CC24CDA4DEF4DFD
(1756900807.709002) can0 101#B6034E0204007000
(1756900807.711021) can0 300#1E04450493FCA0FC
(1756900807.715007) can0 201#D74D01008BFAF2FF
(1756900807.722004) can0 100#17FF00006084995A
(1756900807.723016) can0 500#070A142B1E00007A
(1756900807.725022) can0 200#4C6F4C6D4DA04DA6
(1756900807.727001) can0 400#003E032003210359
(1756900807.729023) can0 101#B9034C02FDFF7000
(1756900807.731019) can0 300#27041F047CFC77FC
(1756900807.735003) can0 201#734D06008AFAF7FF
(1756900807.742021) can0 100#17E000006084995A
(1756900807.745021) can0 200#4C1A4C194D414D42
(1756900807.749010) can0 101#B603510200007000
(1756900807.751022) can0 300#8A04A50409FDEFFC
(1756900807.755008) can0 201#0E4DFFFF88FAF8FF
